Time Stamp,ID,Extended,Dir,Bus,LEN,D1,D2,D3,D4,D5,D6,D7,D8
0,00000480,false,Rx,0,8,1C,AC,00,00,19,40,00,E9,
0,00000580,false,Rx,0,8,80,00,00,14,1C,93,48,14,
0,00000588,false,Rx,0,8,0A,00,70,00,00,00,00,00,
0,00000284,false,Rx,0,6,00,00,00,00,00,00,00,00,
0,00000280,false,Rx,0,8,01,86,00,00,0D,00,28,0D,
0,00000288,false,Rx,0,8,2C,33,10,00,00,75,0D,86,
0,00000380,false,Rx,0,8,00,00,00,00,20,00,00,FE,
0,00000488,false,Rx,0,8,74,00,00,70,FE,FE,00,04,
0,00000480,false,Rx,0,8,1C,AC,00,00,19,40,00,E9,
0,00000284,false,Rx,0,6,01,01,00,00,00,00,00,00,
419000,00000588,false,Rx,0,8,0A,00,70,00,00,00,00,00,
0,00000280,false,Rx,0,8,01,00,00,00,0D,00,28,0D,
0,00000288,false,Rx,0,8,2C,33,10,00,00,75,0D,8D,
0,00000380,false,Rx,0,8,00,00,00,C1,20,00,00,FE,
0,00000488,false,Rx,0,8,93,0D,00,70,FE,FF,FF,10,
0,00000280,false,Rx,0,8,01,00,00,00,0D,00,28,0D,
0,00000288,false,Rx,0,8,2C,33,10,00,00,75,0D,8D,
0,00000380,false,Rx,0,8,00,00,00,C1,20,00,00,FE,
0,00000488,false,Rx,0,8,5C,0D,00,70,FE,FF,00,20,
0,00000480,false,Rx,0,8,1C,AC,00,00,19,40,00,E9,
0,00000284,false,Rx,0,6,02,02,00,00,00,00,00,00,
0,00000588,false,Rx,0,8,0A,00,70,00,00,00,00,00,
0,00000280,false,Rx,0,8,01,00,00,00,0D,00,28,0D,
0,00000288,false,Rx,0,8,2C,33,10,00,00,75,0D,89,
0,00000380,false,Rx,0,8,00,00,00,B9,20,00,00,FE,
0,00000488,false,Rx,0,8,4C,0D,00,70,FE,FF,00,30,
0,00000280,false,Rx,0,8,01,00,00,00,0D,00,28,0D,
0,00000288,false,Rx,0,8,64,33,10,00,00,75,0D,89,
0,00000380,false,Rx,0,8,00,00,00,B9,20,00,00,FE,
0,00000488,false,Rx,0,8,3C,0D,00,70,FE,FF,00,40,
0,00000480,false,Rx,0,8,1C,AC,00,00,19,40,00,E9,
0,00000284,false,Rx,0,6,03,03,00,00,00,00,00,00,
0,00000588,false,Rx,0,8,0A,00,70,00,00,00,00,00,
0,00000280,false,Rx,0,8,01,00,00,00,0D,00,28,0D,
0,00000288,false,Rx,0,8,64,33,11,00,00,75,0D,89,
0,00000380,false,Rx,0,8,00,00,00,B2,20,00,00,FE,
0,00000488,false,Rx,0,8,D3,0D,00,70,FE,FF,FF,50,
0,00000280,false,Rx,0,8,01,00,00,00,35,00,28,35,
0,00000288,false,Rx,0,8,64,33,11,00,00,75,85,89,
0,00000380,false,Rx,0,8,00,00,00,B2,20,00,00,FE,
0,00000488,false,Rx,0,8,DB,35,00,70,FE,FF,FF,60,
0,00000480,false,Rx,0,8,54,AC,00,00,19,40,00,A1,
0,00000284,false,Rx,0,6,04,04,00,00,00,00,00,00,
0,00000588,false,Rx,0,8,0A,00,70,00,00,00,00,00,
0,00000280,false,Rx,0,8,01,00,00,00,34,00,28,34,
0,00000288,false,Rx,0,8,64,33,11,00,00,75,85,8A,
0,00000380,false,Rx,0,8,00,00,00,AC,20,00,00,FE,
0,00000488,false,Rx,0,8,CA,34,00,70,FE,FF,FF,70,
0,00000280,false,Rx,0,8,01,00,00,00,34,00,28,34,
0,00000288,false,Rx,0,8,8A,33,11,00,00,75,85,8A,
0,00000380,false,Rx,0,8,00,00,00,AC,20,00,00,FE,
0,00000488,false,Rx,0,8,3A,34,00,70,FE,FF,FF,80,
0,00000480,false,Rx,0,8,54,AC,00,00,19,40,00,A1,
0,00000284,false,Rx,0,6,05,05,00,00,00,00,00,00,
0,00000588,false,Rx,0,8,0A,00,70,00,00,00,00,00,
0,00000280,false,Rx,0,8,01,00,00,00,34,00,28,34,
0,00000288,false,Rx,0,8,8A,33,11,00,00,75,85,8A,
0,00000380,false,Rx,0,8,00,00,00,A8,20,00,00,FE,
0,00000488,false,Rx,0,8,2A,34,00,70,FE,FF,FF,90,
0,00000280,false,Rx,0,8,01,00,00,00,34,00,28,34,
0,00000288,false,Rx,0,8,8A,33,11,00,00,75,85,8A,
0,00000380,false,Rx,0,8,00,00,00,A8,20,00,00,FE,
0,00000488,false,Rx,0,8,1A,34,00,70,FE,FF,FF,A0,
0,00000480,false,Rx,0,8,54,AC,00,00,19,40,00,A1,
0,00000284,false,Rx,0,6,06,06,00,00,00,00,00,00,
521000,00000588,false,Rx,0,8,0A,00,70,00,00,00,00,00,
0,00000280,false,Rx,0,8,01,00,00,00,34,00,28,34,
0,00000288,false,Rx,0,8,8A,33,11,00,00,75,85,8D,
0,00000380,false,Rx,0,8,00,00,00,A4,20,00,00,FE,
0,00000488,false,Rx,0,8,0A,34,00,70,FE,FF,FF,B0,
0,00000280,false,Rx,0,8,01,00,00,00,34,00,28,34,
0,00000288,false,Rx,0,8,E8,33,11,00,00,75,85,8D,
0,00000380,false,Rx,0,8,00,00,00,A4,20,00,00,FE,
0,00000488,false,Rx,0,8,7A,34,00,70,FE,FF,FF,C0,
0,00000480,false,Rx,0,8,54,AC,00,00,19,40,00,A1,
0,00000284,false,Rx,0,6,07,07,00,00,00,00,00,00,
542000,00000588,false,Rx,0,8,0A,00,70,00,00,00,00,00,
0,00000280,false,Rx,0,8,01,00,00,00,34,00,28,34,
0,00000288,false,Rx,0,8,E8,33,11,00,00,75,85,8D,
0,00000380,false,Rx,0,8,00,00,00,A2,20,00,00,FE,
550000,00000488,false,Rx,0,8,6A,34,00,70,FE,FF,FF,D0,
0,00000280,false,Rx,0,8,01,00,00,00,34,00,28,34,
0,00000288,false,Rx,0,8,E8,33,11,00,00,75,85,8D,
0,00000380,false,Rx,0,8,00,00,00,A2,20,00,00,FE,
0,00000488,false,Rx,0,8,5A,34,00,70,FE,FF,FF,E0,
0,00000480,false,Rx,0,8,84,AC,00,00,19,40,00,71,
0,00000284,false,Rx,0,6,08,08,00,00,00,00,00,00,
562000,00000588,false,Rx,0,8,0A,00,70,00,00,00,00,00,
0,00000280,false,Rx,0,8,01,00,00,00,34,00,28,34,
0,00000288,false,Rx,0,8,E8,33,11,00,00,75,85,8D,
0,00000380,false,Rx,0,8,00,00,00,9F,20,00,00,FE,
0,00000488,false,Rx,0,8,4A,34,00,70,FE,FF,FF,F0,
574000,00000280,false,Rx,0,8,01,00,00,00,34,00,28,34,
0,00000288,false,Rx,0,8,2C,33,11,00,00,75,6F,8D,
0,00000380,false,Rx,0,8,00,00,00,9F,20,00,00,FE,
0,00000488,false,Rx,0,8,45,34,00,70,FE,FF,00,00,
0,00000480,false,Rx,0,8,84,AC,00,00,19,40,00,71,
0,00000284,false,Rx,0,6,09,09,00,00,00,00,00,00,
0,00000588,false,Rx,0,8,0A,00,70,00,00,00,00,00,
0,00000280,false,Rx,0,8,01,00,00,00,33,00,28,33,
0,00000288,false,Rx,0,8,2C,33,D1,00,00,75,6F,8D,
0,00000380,false,Rx,0,8,00,00,00,9E,20,00,00,FE,
0,00000488,false,Rx,0,8,AD,33,00,70,FE,FF,FF,10,
0,00000280,false,Rx,0,8,A1,00,00,00,33,00,28,33,
0,00000288,false,Rx,0,8,2C,33,D1,00,00,75,6F,8D,
0,00000380,false,Rx,0,8,20,00,00,9E,20,00,00,FE,
0,00000488,false,Rx,0,8,62,33,00,70,FE,FF,00,20,
0,00000480,false,Rx,0,8,84,AC,00,00,19,40,00,71,
0,00000284,false,Rx,0,6,0A,0A,00,00,00,00,00,00,
599000,00000588,false,Rx,0,8,0A,00,70,00,00,00,00,00,
0,00000280,false,Rx,0,8,A1,00,00,00,33,00,28,33,
0,00000288,false,Rx,0,8,2C,33,D1,00,00,75,6F,8D,
0,00000380,false,Rx,0,8,20,00,00,9C,20,00,00,FE,
0,00000488,false,Rx,0,8,72,33,00,70,FE,FF,00,30,
0,00000280,false,Rx,0,8,A1,00,00,00,33,00,28,33,
0,00000288,false,Rx,0,8,64,33,D1,00,00,75,6F,8D,
0,00000380,false,Rx,0,8,20,00,00,9C,20,00,00,FE,
0,00000488,false,Rx,0,8,02,33,00,70,FE,FF,00,40,
0,00000480,false,Rx,0,8,84,AC,00,00,19,40,00,71,
0,00000284,false,Rx,0,6,0B,0B,00,00,00,00,00,00,
0,00000588,false,Rx,0,8,0A,00,70,00,00,00,00,00,
0,00000280,false,Rx,0,8,A3,00,00,00,33,FA,28,33,
0,00000288,false,Rx,0,8,64,33,D1,00,00,75,6F,8D,
0,00000380,false,Rx,0,8,30,00,00,9B,20,00,00,FE,
0,00000488,false,Rx,0,8,ED,33,00,70,FE,FF,FF,50,
0,00000280,false,Rx,0,8,A3,00,00,00,33,FA,28,33,
0,00000288,false,Rx,0,8,64,33,D1,00,00,75,6F,8D,
0,00000380,false,Rx,0,8,30,00,00,9B,20,00,00,FE,
0,00000488,false,Rx,0,8,DD,33,00,70,FE,FF,FF,60,
0,00000480,false,Rx,0,8,C2,AC,00,00,19,40,00,37,
0,00000284,false,Rx,0,6,0C,0C,00,00,00,00,00,00,
0,00000588,false,Rx,0,8,0A,00,70,00,00,00,00,00,
0,00000280,false,Rx,0,8,A3,00,00,00,33,FA,28,33,
0,00000288,false,Rx,0,8,64,33,D1,00,00,75,6F,8D,
0,00000380,false,Rx,0,8,30,00,00,9A,20,00,00,FE,
0,00000488,false,Rx,0,8,CD,33,00,70,FE,FF,FF,70,
0,00000280,false,Rx,0,8,A3,00,00,00,33,FA,28,33,
0,00000288,false,Rx,0,8,8A,33,D1,00,00,75,6F,8D,
0,00000380,false,Rx,0,8,30,00,00,9A,20,00,00,FE,
0,00000488,false,Rx,0,8,3D,33,00,70,FE,FF,FF,80,
0,00000480,false,Rx,0,8,C2,AC,00,00,19,40,00,37,
0,00000284,false,Rx,0,6,0D,0D,00,00,00,00,00,00,
0,00000588,false,Rx,0,8,0B,00,70,00,00,80,00,00,
0,00000280,false,Rx,0,8,A3,00,00,00,33,FA,28,33,
0,00000288,false,Rx,0,8,8A,33,D1,00,00,75,6F,8D,
0,00000380,false,Rx,0,8,30,00,00,99,20,00,00,FE,
0,00000488,false,Rx,0,8,2D,33,00,70,FE,FF,FF,90,
0,00000280,false,Rx,0,8,A3,00,00,00,33,FA,28,33,
0,00000288,false,Rx,0,8,8A,33,D1,00,00,75,6F,8D,
0,00000380,false,Rx,0,8,30,00,00,99,20,00,00,FE,
0,00000488,false,Rx,0,8,1D,33,00,70,FE,FF,FF,A0,
0,00000480,false,Rx,0,8,C2,AC,00,00,19,40,00,37,
0,00000284,false,Rx,0,6,0E,0E,00,00,00,00,00,00,
0,00000588,false,Rx,0,8,0B,00,70,00,00,80,00,00,
0,00000280,false,Rx,0,8,A3,00,00,00,33,FA,28,33,
0,00000288,false,Rx,0,8,8A,33,D1,00,00,75,6F,8D,
0,00000380,false,Rx,0,8,30,00,00,99,20,00,00,FE,
0,00000488,false,Rx,0,8,0D,33,00,70,FE,FF,FF,B0,
0,00000280,false,Rx,0,8,A3,00,00,00,33,FA,28,33,
0,00000288,false,Rx,0,8,E8,33,D1,00,00,75,6F,8D,
0,00000380,false,Rx,0,8,30,00,00,99,20,00,00,FE,
0,00000488,false,Rx,0,8,7D,33,00,70,FE,FF,FF,C0,
0,00000480,false,Rx,0,8,C2,AC,00,00,19,40,00,37,
0,00000284,false,Rx,0,6,0F,0F,00,00,00,00,00,00,
0,00000588,false,Rx,0,8,0B,00,70,00,00,80,00,00,
0,00000280,false,Rx,0,8,A3,00,00,00,33,FA,28,33,
0,00000288,false,Rx,0,8,E8,33,D1,00,00,75,6F,87,
0,00000380,false,Rx,0,8,30,00,00,98,20,00,00,FE,
0,00000488,false,Rx,0,8,6D,33,00,70,FE,FF,FF,D0,
0,00000280,false,Rx,0,8,A3,00,00,00,33,FA,28,33,
0,00000288,false,Rx,0,8,E8,33,D1,00,00,75,6F,87,
0,00000380,false,Rx,0,8,30,00,00,98,20,00,00,FE,
0,00000488,false,Rx,0,8,5D,33,00,70,FE,FF,FF,E0,
0,00000480,false,Rx,0,8,1C,AC,00,00,19,40,00,E9,
0,00000284,false,Rx,0,6,00,00,00,00,00,00,00,00,
722000,00000588,false,Rx,0,8,0B,00,70,00,00,80,00,00,
0,00000280,false,Rx,0,8,A3,00,00,00,33,FA,28,33,
0,00000288,false,Rx,0,8,E8,33,D1,00,00,75,75,87,
0,00000380,false,Rx,0,8,30,00,00,98,20,00,00,FE,
730000,00000488,false,Rx,0,8,4D,33,00,70,FE,FF,FF,F0,
0,00000280,false,Rx,0,8,A3,00,00,00,33,FA,28,33,
0,00000288,false,Rx,0,8,2C,33,D1,00,00,75,75,87,
0,00000380,false,Rx,0,8,30,00,00,98,20,00,00,FE,
0,00000488,false,Rx,0,8,42,33,00,70,FE,FF,00,00,
0,00000480,false,Rx,0,8,1C,AC,00,00,19,40,00,E9,
0,00000284,false,Rx,0,6,01,01,00,00,00,00,00,00,
0,00000588,false,Rx,0,8,0B,00,70,00,00,80,00,00,
0,00000010,false,Rx,0,7,55,DC,A5,D3,53,78,80,00,
0,00000280,false,Rx,0,8,A3,00,00,00,33,FA,28,33,
0,00000288,false,Rx,0,8,2C,33,D1,00,00,75,75,87,
0,00000380,false,Rx,0,8,30,00,00,98,20,00,00,FE,
0,00000488,false,Rx,0,8,AD,33,00,70,FE,FF,FF,10,
0,00000280,false,Rx,0,8,A3,00,00,00,33,FA,28,33,
0,00000288,false,Rx,0,8,2C,33,D1,00,00,75,75,87,
0,00000380,false,Rx,0,8,30,00,00,98,20,00,00,FE,
0,00000488,false,Rx,0,8,62,33,00,70,FE,FF,00,20,
0,00000480,false,Rx,0,8,1C,AC,00,00,19,40,00,E9,
0,00000284,false,Rx,0,6,02,02,00,00,00,00,00,00,
763000,00000588,false,Rx,0,8,0B,00,70,00,00,80,00,00,
0,00000280,false,Rx,0,8,A3,00,00,00,33,FA,28,33,
0,00000288,false,Rx,0,8,2C,33,D1,00,00,75,75,87,
0,00000380,false,Rx,0,8,30,00,00,97,20,00,00,FE,
0,00000488,false,Rx,0,8,72,33,00,70,FE,FF,00,30,
0,00000280,false,Rx,0,8,A3,00,00,00,33,FA,28,33,
0,00000288,false,Rx,0,8,64,33,D1,00,00,75,75,87,
0,00000380,false,Rx,0,8,30,00,00,97,20,00,00,FE,
0,00000488,false,Rx,0,8,02,33,00,70,FE,FF,00,40,
0,00000480,false,Rx,0,8,1C,AC,00,00,19,40,00,E9,
0,00000284,false,Rx,0,6,03,03,00,00,00,00,00,00,
779000,00000588,false,Rx,0,8,0B,00,70,00,00,80,00,00,
0,00000280,false,Rx,0,8,A3,00,00,00,33,FA,28,33,
0,00000288,false,Rx,0,8,64,33,D1,00,00,75,75,87,
0,00000380,false,Rx,0,8,30,00,00,97,20,00,00,FE,
0,00000488,false,Rx,0,8,ED,33,00,70,FE,FF,FF,50,
0,00000280,false,Rx,0,8,A3,00,00,00,33,FA,28,33,
0,00000288,false,Rx,0,8,64,33,D1,00,00,75,75,87,
0,00000380,false,Rx,0,8,30,00,00,97,20,00,00,FE,
0,00000488,false,Rx,0,8,DD,33,00,70,FE,FF,FF,60,
0,00000480,false,Rx,0,8,54,AC,00,00,19,40,00,A1,
0,00000284,false,Rx,0,6,04,04,00,00,00,00,00,00,
799000,00000588,false,Rx,0,8,0B,00,70,00,00,80,00,00,
804000,00000010,false,Rx,0,7,57,DE,A7,D5,5B,F5,80,00,
0,00000280,false,Rx,0,8,A3,00,00,00,33,FA,28,33,
0,00000288,false,Rx,0,8,64,33,D1,00,00,75,75,87,
0,00000380,false,Rx,0,8,30,00,00,97,20,00,00,FE,
0,00000488,false,Rx,0,8,CD,33,00,70,FE,FF,FF,70,
0,00000280,false,Rx,0,8,A3,00,00,00,33,FA,28,33,
0,00000288,false,Rx,0,8,8A,33,D1,00,00,75,75,87,
0,00000380,false,Rx,0,8,30,00,00,97,20,00,00,FE,
0,00000488,false,Rx,0,8,3D,33,00,70,FE,FF,FF,80,
0,00000480,false,Rx,0,8,54,AC,00,00,19,40,00,A1,
0,00000284,false,Rx,0,6,05,05,00,00,00,00,00,00,
0,00000588,false,Rx,0,8,0B,00,70,00,00,80,00,00,
0,00000280,false,Rx,0,8,A3,00,00,00,33,FA,28,33,
0,00000288,false,Rx,0,8,8A,33,D1,00,00,75,75,87,
0,00000380,false,Rx,0,8,30,00,00,97,20,00,00,FE,
0,00000488,false,Rx,0,8,2D,33,00,70,FE,FF,FF,90,
0,00000280,false,Rx,0,8,A3,00,00,00,33,FA,28,33,
0,00000288,false,Rx,0,8,8A,33,D1,00,00,75,75,87,
0,00000380,false,Rx,0,8,30,00,00,97,20,00,00,FE,
0,00000488,false,Rx,0,8,1D,33,00,70,FE,FF,FF,A0,
0,00000480,false,Rx,0,8,54,AC,00,00,19,40,00,A1,
0,00000284,false,Rx,0,6,06,06,00,00,00,00,00,00,
0,00000588,false,Rx,0,8,0B,00,70,00,00,80,00,00,
0,00000280,false,Rx,0,8,A3,00,00,00,33,FA,28,33,
0,00000288,false,Rx,0,8,8A,33,D1,00,00,75,75,87,
0,00000380,false,Rx,0,8,30,00,00,97,20,00,00,FE,
0,00000488,false,Rx,0,8,0D,33,00,70,FE,FF,FF,B0,
0,00000280,false,Rx,0,8,A3,00,00,00,33,FA,28,33,
0,00000288,false,Rx,0,8,E8,33,D1,00,00,75,75,87,
0,00000380,false,Rx,0,8,30,00,00,97,20,00,00,FE,
0,00000488,false,Rx,0,8,7D,33,00,70,FE,FF,FF,C0,
0,00000480,false,Rx,0,8,54,2C,00,00,19,40,00,21,
0,00000284,false,Rx,0,6,07,07,00,00,00,00,00,00,
0,00000588,false,Rx,0,8,0B,00,70,00,00,80,00,00,
0,00000010,false,Rx,0,7,55,DC,A5,D3,53,78,80,00,
0,00000280,false,Rx,0,8,A3,00,00,00,33,FA,28,33,
0,00000288,false,Rx,0,8,E8,33,D1,00,00,75,75,87,
0,00000380,false,Rx,0,8,30,00,00,97,20,00,00,FE,
0,00000488,false,Rx,0,8,6D,33,00,70,FE,FF,FF,D0,
0,00000280,false,Rx,0,8,A3,00,00,00,33,FA,28,33,
0,00000288,false,Rx,0,8,E8,33,D1,00,00,75,75,87,
0,00000380,false,Rx,0,8,30,00,00,97,20,00,00,FE,
0,00000488,false,Rx,0,8,5D,33,00,70,FE,FF,FF,E0,
0,00000480,false,Rx,0,8,84,2C,00,00,19,40,00,F1,
0,00000284,false,Rx,0,6,08,08,00,00,00,00,00,00,
0,00000588,false,Rx,0,8,0B,00,70,00,00,80,00,00,
0,00000280,false,Rx,0,8,A3,00,00,00,33,FA,28,33,
0,00000288,false,Rx,0,8,E8,33,D1,00,00,75,75,87,
0,00000380,false,Rx,0,8,30,00,00,97,20,00,00,FE,
0,00000488,false,Rx,0,8,4D,33,00,70,FE,FF,FF,F0,
0,00000280,false,Rx,0,8,A3,00,00,00,33,FA,28,33,
0,00000288,false,Rx,0,8,2C,33,D1,00,00,75,75,87,
0,00000380,false,Rx,0,8,30,00,00,97,20,00,00,FE,
0,00000488,false,Rx,0,8,42,33,00,70,FE,FF,00,00,
0,00000480,false,Rx,0,8,84,2C,00,00,19,40,00,F1,
0,00000284,false,Rx,0,6,09,09,00,00,00,00,00,00,
902000,00000588,false,Rx,0,8,0B,00,70,00,00,80,00,00,
0,00000280,false,Rx,0,8,A3,00,00,00,33,FA,28,33,
0,00000288,false,Rx,0,8,2C,33,D1,00,00,75,75,87,
0,00000380,false,Rx,0,8,30,00,00,97,20,00,00,FE,
910000,00000488,false,Rx,0,8,AD,33,00,70,FE,FF,FF,10,
0,00000280,false,Rx,0,8,A3,00,00,00,33,FA,28,33,
0,00000288,false,Rx,0,8,2C,33,D1,00,00,75,75,87,
0,00000380,false,Rx,0,8,30,00,00,97,20,00,00,FE,
0,00000488,false,Rx,0,8,62,33,00,70,FE,FF,00,20,
0,00000480,false,Rx,0,8,84,2C,00,00,19,40,00,F1,
0,00000284,false,Rx,0,6,0A,0A,00,00,00,00,00,00,
0,00000588,false,Rx,0,8,0B,00,70,00,00,80,00,00,
0,00000010,false,Rx,0,7,57,DE,A7,D5,5B,F5,80,00,
0,00000280,false,Rx,0,8,A3,00,00,00,33,FA,28,33,
0,00000288,false,Rx,0,8,2C,33,D1,00,00,75,75,87,
0,00000380,false,Rx,0,8,30,00,00,97,20,00,00,FE,
931000,00000488,false,Rx,0,8,72,33,00,70,FE,FF,00,30,
0,00000280,false,Rx,0,8,A3,00,00,00,33,FA,28,33,
0,00000288,false,Rx,0,8,64,33,D1,00,00,75,75,87,
0,00000380,false,Rx,0,8,30,00,00,97,20,00,00,FE,
0,00000488,false,Rx,0,8,02,33,00,70,FE,FF,00,40,
0,00000480,false,Rx,0,8,84,2C,00,00,19,40,00,F1,
0,00000284,false,Rx,0,6,0B,0B,00,00,00,00,00,00,
943000,00000588,false,Rx,0,8,0B,00,70,00,00,80,00,00,
0,00000280,false,Rx,0,8,A3,00,00,00,33,FA,28,33,
0,00000288,false,Rx,0,8,64,33,D1,00,00,75,75,87,
0,00000380,false,Rx,0,8,30,00,00,97,20,00,00,FE,
0,00000488,false,Rx,0,8,ED,33,00,70,FE,FF,FF,50,
0,00000280,false,Rx,0,8,A3,00,00,00,33,FA,28,33,
0,00000288,false,Rx,0,8,64,33,D1,00,00,75,75,87,
0,00000380,false,Rx,0,8,30,00,00,97,20,00,00,FE,
0,00000488,false,Rx,0,8,DD,33,00,70,FE,FF,FF,60,
0,00000480,false,Rx,0,8,C2,2C,00,00,19,40,00,B7,
0,00000284,false,Rx,0,6,0C,0C,00,00,00,00,00,00,
0,00000588,false,Rx,0,8,0B,00,70,00,00,80,00,00,
0,00000280,false,Rx,0,8,A3,00,00,00,33,FA,28,33,
0,00000288,false,Rx,0,8,64,33,D1,00,00,75,75,87,
0,00000380,false,Rx,0,8,30,00,00,97,20,00,00,FE,
0,00000488,false,Rx,0,8,CD,33,00,70,FE,FF,FF,70,
0,00000280,false,Rx,0,8,A3,00,00,00,33,FA,28,33,
0,00000288,false,Rx,0,8,8A,33,D1,00,00,75,75,87,
0,00000380,false,Rx,0,8,30,00,00,97,20,00,00,FE,
0,00000488,false,Rx,0,8,3D,33,00,70,FE,FF,FF,80,
0,00000480,false,Rx,0,8,C2,2C,00,00,19,40,00,B7,
0,00000284,false,Rx,0,6,0D,0D,00,00,00,00,00,00,
980000,00000588,false,Rx,0,8,0B,00,70,00,00,80,00,00,
984000,00000010,false,Rx,0,7,55,DC,A5,D3,53,78,80,00,
0,00000280,false,Rx,0,8,A3,00,00,00,33,FA,28,33,
0,00000288,false,Rx,0,8,8A,33,D1,00,00,75,75,87,
0,00000380,false,Rx,0,8,30,00,00,97,20,00,00,FE,
0,00000488,false,Rx,0,8,2D,33,00,70,FE,FF,FF,90,
0,00000280,false,Rx,0,8,A3,00,00,00,33,FA,28,33,
0,00000288,false,Rx,0,8,8A,33,D1,00,00,75,75,87,
0,00000380,false,Rx,0,8,30,00,00,97,20,00,00,FE,
0,00000488,false,Rx,0,8,1D,33,00,70,FE,FF,FF,A0,
0,00000480,false,Rx,0,8,C2,2C,00,00,19,40,00,B7,
0,00000284,false,Rx,0,6,0E,0E,00,00,00,00,00,00,
0,00000588,false,Rx,0,8,0B,00,70,00,00,80,00,00,
0,00000280,false,Rx,0,8,A3,8A,00,00,33,FA,28,33,
0,00000288,false,Rx,0,8,8A,33,D1,00,00,75,75,53,
0,00000380,false,Rx,0,8,30,00,00,97,20,00,00,FE,
0,00000488,false,Rx,0,8,0D,33,00,70,FE,FF,FF,B0,
0,00000280,false,Rx,0,8,A3,8A,00,00,33,FA,28,33,
0,00000288,false,Rx,0,8,E8,33,D1,00,00,75,75,53,
0,00000380,false,Rx,0,8,30,00,00,97,20,00,00,FE,
0,00000488,false,Rx,0,8,7D,33,00,70,FE,FF,FF,C0,
0,00000480,false,Rx,0,8,C2,2C,00,00,19,40,00,B7,
0,00000284,false,Rx,0,6,0F,0F,00,00,00,00,00,00,
0,00000588,false,Rx,0,8,0B,00,70,00,00,80,00,00,
0,00000280,false,Rx,0,8,A3,8A,00,00,33,FA,28,33,
0,00000288,false,Rx,0,8,E8,33,D1,00,00,75,75,53,
0,00000380,false,Rx,0,8,30,00,00,96,20,00,00,FE,
0,00000488,false,Rx,0,8,6D,33,00,70,FE,FF,FF,D0,
0,00000280,false,Rx,0,8,A3,8A,00,00,33,FA,28,33,
0,00000288,false,Rx,0,8,E8,33,D1,00,00,75,75,53,
0,00000380,false,Rx,0,8,30,00,00,96,20,00,00,FE,
0,00000488,false,Rx,0,8,5D,33,00,70,FE,FF,FF,E0,
0,00000480,false,Rx,0,8,1C,2C,00,00,19,40,00,69,
0,00000284,false,Rx,0,6,00,00,00,00,00,00,00,00,
0,00000588,false,Rx,0,8,0B,00,70,00,00,80,00,00,
0,00000010,false,Rx,0,7,57,DE,A7,D5,5B,F5,80,00,
0,00000280,false,Rx,0,8,A3,8A,00,00,33,FA,28,33,
0,00000288,false,Rx,0,8,E8,33,D1,00,00,75,75,53,
0,00000380,false,Rx,0,8,30,00,00,96,20,00,00,FE,
0,00000488,false,Rx,0,8,4D,33,00,70,FE,FF,FF,F0,
0,00000280,false,Rx,0,8,A3,8A,00,00,33,FA,28,33,
0,00000288,false,Rx,0,8,2C,33,D1,00,00,75,75,53,
0,00000380,false,Rx,0,8,30,00,00,96,20,00,00,FE,
0,00000488,false,Rx,0,8,42,33,00,70,FE,FF,00,00,
0,00000480,false,Rx,0,8,1C,2C,00,00,19,40,00,69,
0,00000284,false,Rx,0,6,01,01,00,00,00,00,00,00,
0,00000588,false,Rx,0,8,0B,00,70,00,00,80,00,00,
0,00000280,false,Rx,0,8,A3,8A,00,00,33,FA,28,33,
0,00000288,false,Rx,0,8,2C,33,D1,00,00,75,75,53,
0,00000380,false,Rx,0,8,30,00,00,96,20,00,00,FE,
0,00000488,false,Rx,0,8,AD,33,00,70,FE,FF,FF,10,
0,00000280,false,Rx,0,8,A3,8A,00,00,33,FA,28,33,
0,00000288,false,Rx,0,8,2C,33,D1,00,00,75,75,53,
0,00000380,false,Rx,0,8,30,00,00,96,20,00,00,FE,
0,00000488,false,Rx,0,8,62,33,00,70,FE,FF,00,20,
0,00000480,false,Rx,0,8,1C,2C,00,00,19,40,00,69,
0,00000284,false,Rx,0,6,02,02,00,00,00,00,00,00,
82000,00000588,false,Rx,0,8,0B,00,70,00,00,80,00,00,
0,00000280,false,Rx,0,8,A3,8A,00,00,33,FA,28,33,
0,00000288,false,Rx,0,8,2C,33,D1,00,00,75,75,53,
0,00000380,false,Rx,0,8,30,00,00,96,20,00,00,FE,
0,00000488,false,Rx,0,8,72,33,00,70,FE,FF,00,30,
0,00000280,false,Rx,0,8,A3,8A,00,00,33,FA,28,33,
0,00000288,false,Rx,0,8,64,33,D1,00,00,75,75,53,
0,00000380,false,Rx,0,8,30,00,00,96,20,00,00,FE,
0,00000488,false,Rx,0,8,02,33,00,70,FE,FF,00,40,
0,00000480,false,Rx,0,8,1C,2C,00,00,19,40,00,69,
0,00000284,false,Rx,0,6,03,03,00,00,00,00,00,00,
0,00000588,false,Rx,0,8,0B,00,70,00,00,80,00,00,
0,00000010,false,Rx,0,7,55,DC,A5,D3,53,78,80,00,
0,00000280,false,Rx,0,8,A3,8A,00,00,33,FA,28,33,
0,00000288,false,Rx,0,8,64,33,D1,00,00,75,75,53,
0,00000380,false,Rx,0,8,30,00,00,96,20,00,00,FE,
111000,00000488,false,Rx,0,8,ED,33,00,70,FE,FF,FF,50,
0,00000280,false,Rx,0,8,A3,8A,00,00,33,FA,28,33,
0,00000288,false,Rx,0,8,64,33,D1,00,00,75,75,53,
0,00000380,false,Rx,0,8,30,00,00,96,20,00,00,FE,
0,00000488,false,Rx,0,8,DD,33,00,70,FE,FF,FF,60,
0,00000480,false,Rx,0,8,54,2C,00,00,19,40,00,21,
0,00000284,false,Rx,0,6,04,04,00,00,00,00,00,00,
123000,00000588,false,Rx,0,8,0B,00,70,00,00,80,00,00,
0,00000280,false,Rx,0,8,A3,8A,00,00,33,FA,28,33,
0,00000288,false,Rx,0,8,64,33,D1,00,00,75,75,53,
0,00000380,false,Rx,0,8,30,00,00,96,20,00,00,FE,
0,00000488,false,Rx,0,8,CD,33,00,70,FE,FF,FF,70,
136000,00000280,false,Rx,0,8,A3,8A,00,00,33,FA,28,33,
0,00000288,false,Rx,0,8,8A,33,D1,00,00,75,75,53,
0,00000380,false,Rx,0,8,30,00,00,96,20,00,00,FE,
0,00000488,false,Rx,0,8,3D,33,00,70,FE,FF,FF,80,
0,00000480,false,Rx,0,8,54,2C,00,00,19,40,00,21,
0,00000284,false,Rx,0,6,05,05,00,00,00,00,00,00,
0,00000588,false,Rx,0,8,0B,00,70,00,00,80,00,00,
0,00000280,false,Rx,0,8,A3,8A,00,00,33,FA,28,33,
0,00000288,false,Rx,0,8,8A,33,D1,00,00,75,75,53,
0,00000380,false,Rx,0,8,30,00,00,96,20,00,00,FE,
0,00000488,false,Rx,0,8,2D,33,00,70,FE,FF,FF,90,
0,00000280,false,Rx,0,8,A3,8A,00,00,33,FA,28,33,
0,00000288,false,Rx,0,8,8A,33,D1,00,00,75,75,53,
0,00000380,false,Rx,0,8,30,00,00,96,20,00,00,FE,
0,00000488,false,Rx,0,8,1D,33,00,70,FE,FF,FF,A0,
0,00000480,false,Rx,0,8,54,2C,00,00,19,40,00,21,
0,00000284,false,Rx,0,6,06,06,00,00,00,00,00,00,
160000,00000588,false,Rx,0,8,0B,00,70,00,00,80,00,00,
164000,00000010,false,Rx,0,7,57,DE,A7,D5,5B,F5,80,00,
0,00000280,false,Rx,0,8,A3,8A,00,00,33,FA,28,33,
0,00000288,false,Rx,0,8,8A,33,D1,00,00,75,75,53,
0,00000380,false,Rx,0,8,30,00,00,96,20,00,00,FE,
0,00000488,false,Rx,0,8,0D,33,00,70,FE,FF,FF,B0,
0,00000280,false,Rx,0,8,A3,8A,00,00,33,FA,28,33,
0,00000288,false,Rx,0,8,E8,33,D1,00,00,75,75,53,
0,00000380,false,Rx,0,8,30,00,00,96,20,00,00,FE,
0,00000488,false,Rx,0,8,7D,33,00,70,FE,FF,FF,C0,
0,00000480,false,Rx,0,8,54,2C,00,00,19,40,00,21,
0,00000284,false,Rx,0,6,07,07,00,00,00,00,00,00,
0,00000588,false,Rx,0,8,0B,00,70,00,00,80,00,00,
0,00000280,false,Rx,0,8,A3,8A,00,00,33,FA,28,33,
0,00000288,false,Rx,0,8,E8,33,D1,00,00,75,75,53,
0,00000380,false,Rx,0,8,30,00,00,96,20,00,00,FE,
0,00000488,false,Rx,0,8,6D,33,00,70,FE,FF,FF,D0,
0,00000280,false,Rx,0,8,A3,8A,00,00,33,FA,28,33,
0,00000288,false,Rx,0,8,E8,33,D1,00,00,75,75,53,
0,00000380,false,Rx,0,8,30,00,00,96,20,00,00,FE,
0,00000488,false,Rx,0,8,5D,33,00,70,FE,FF,FF,E0,
0,00000480,false,Rx,0,8,84,2C,00,00,19,40,00,F1,
0,00000284,false,Rx,0,6,08,08,00,00,00,00,00,00,
0,00000588,false,Rx,0,8,0B,00,70,00,00,80,00,00,
0,00000280,false,Rx,0,8,A3,8A,00,00,33,FA,28,33,
0,00000288,false,Rx,0,8,E8,33,D1,00,00,75,75,53,
0,00000380,false,Rx,0,8,30,00,00,96,20,00,00,FE,
0,00000488,false,Rx,0,8,4D,33,00,70,FE,FF,FF,F0,
0,00000280,false,Rx,0,8,A3,8A,00,00,33,FA,28,33,
0,00000288,false,Rx,0,8,2C,33,D1,00,00,75,75,53,
0,00000380,false,Rx,0,8,30,00,00,96,20,00,00,FE,
0,00000488,false,Rx,0,8,42,33,00,70,FE,FF,00,00,
0,00000480,false,Rx,0,8,84,2C,00,00,19,40,00,F1,
0,00000284,false,Rx,0,6,09,09,00,00,00,00,00,00,
0,00000588,false,Rx,0,8,0B,00,70,00,00,80,00,00,
0,00000010,false,Rx,0,7,55,DC,A5,D3,53,78,80,00,
0,00000280,false,Rx,0,8,A3,8A,00,00,33,FA,28,33,
0,00000288,false,Rx,0,8,2C,33,D1,00,00,75,75,53,
0,00000380,false,Rx,0,8,30,00,00,96,20,00,00,FE,
0,00000488,false,Rx,0,8,AD,33,00,70,FE,FF,FF,10,
0,00000280,false,Rx,0,8,A3,8A,00,00,33,FA,28,33,
0,00000288,false,Rx,0,8,2C,33,D1,00,00,75,75,53,
0,00000380,false,Rx,0,8,30,00,00,96,20,00,00,FE,
0,00000488,false,Rx,0,8,62,33,00,70,FE,FF,00,20,
0,00000480,false,Rx,0,8,84,2C,00,00,19,40,00,F1,
0,00000284,false,Rx,0,6,0A,0A,00,00,00,00,00,00,
0,00000588,false,Rx,0,8,0B,00,70,00,00,80,00,00,
0,00000280,false,Rx,0,8,A3,8A,00,00,33,FA,28,33,
0,00000288,false,Rx,0,8,2C,33,D1,00,00,75,75,53,
0,00000380,false,Rx,0,8,30,00,00,96,20,00,00,FE,
0,00000488,false,Rx,0,8,72,33,00,70,FE,FF,00,30,
0,00000280,false,Rx,0,8,A3,8A,00,00,33,FA,28,33,
0,00000288,false,Rx,0,8,64,33,D1,00,00,75,75,53,
0,00000380,false,Rx,0,8,30,00,00,96,20,00,00,FE,
0,00000488,false,Rx,0,8,02,33,00,70,FE,FF,00,40,
0,00000480,false,Rx,0,8,84,2C,00,00,19,40,00,F1,
0,00000284,false,Rx,0,6,0B,0B,00,00,00,00,00,00,
0,00000588,false,Rx,0,8,0B,00,70,00,00,80,00,00,
0,00000280,false,Rx,0,8,A3,8A,00,00,33,FA,28,33,
0,00000288,false,Rx,0,8,64,33,D1,00,00,75,75,53,
0,00000380,false,Rx,0,8,30,00,00,96,20,00,00,FE,
0,00000488,false,Rx,0,8,ED,33,00,70,FE,FF,FF,50,
0,00000280,false,Rx,0,8,A3,8A,00,00,33,FA,28,33,
0,00000288,false,Rx,0,8,64,33,D1,00,00,75,75,53,
0,00000380,false,Rx,0,8,30,00,00,96,20,00,00,FE,
0,00000488,false,Rx,0,8,DD,33,00,70,FE,FF,FF,60,
0,00000480,false,Rx,0,8,C2,2C,00,00,19,40,00,B7,
0,00000284,false,Rx,0,6,0C,0C,00,00,00,00,00,00,
283000,00000588,false,Rx,0,8,0B,00,70,00,00,80,00,00,
0,00000010,false,Rx,0,7,57,DE,A7,D5,5B,F5,80,00,
0,00000280,false,Rx,0,8,A3,8A,00,00,33,FA,28,33,
0,00000288,false,Rx,0,8,64,33,D1,00,00,75,75,53,
0,00000380,false,Rx,0,8,30,00,00,96,20,00,00,FE,
291000,00000488,false,Rx,0,8,CD,33,00,70,FE,FF,FF,70,
0,00000280,false,Rx,0,8,A3,8A,00,00,33,FA,28,33,
0,00000288,false,Rx,0,8,8A,33,D1,00,00,75,75,53,
0,00000380,false,Rx,0,8,30,00,00,96,20,00,00,FE,
0,00000488,false,Rx,0,8,3D,33,00,70,FE,FF,FF,80,
0,00000480,false,Rx,0,8,C2,2C,00,00,19,40,00,B7,
0,00000284,false,Rx,0,6,0D,0D,00,00,00,00,00,00,
303000,00000588,false,Rx,0,8,0B,00,70,00,00,80,00,00,
0,00000280,false,Rx,0,8,A3,8A,00,00,33,FA,28,33,
0,00000288,false,Rx,0,8,8A,33,D1,00,00,75,75,53,
0,00000380,false,Rx,0,8,30,00,00,96,20,00,00,FE,
0,00000488,false,Rx,0,8,2D,33,00,70,FE,FF,FF,90,
0,00000280,false,Rx,0,8,A3,8A,00,00,33,FA,28,33,
0,00000288,false,Rx,0,8,8A,33,D1,00,00,75,75,53,
0,00000380,false,Rx,0,8,30,00,00,96,20,00,00,FE,
0,00000488,false,Rx,0,8,1D,33,00,70,FE,FF,FF,A0,
0,00000480,false,Rx,0,8,C2,2C,00,00,19,40,00,B7,
0,00000284,false,Rx,0,6,0E,0E,00,00,00,00,00,00,
324000,00000588,false,Rx,0,8,0B,00,70,00,00,80,00,00,
0,00000280,false,Rx,0,8,A3,8A,00,00,33,FA,28,33,
0,00000288,false,Rx,0,8,8A,33,D1,00,00,75,75,53,
0,00000380,false,Rx,0,8,30,00,00,96,20,00,00,FE,
0,00000488,false,Rx,0,8,0D,33,00,70,FE,FF,FF,B0,
0,00000280,false,Rx,0,8,A3,8A,00,00,33,FA,28,33,
0,00000288,false,Rx,0,8,E8,33,D1,00,00,75,75,53,
0,00000380,false,Rx,0,8,30,00,00,96,20,00,00,FE,
0,00000488,false,Rx,0,8,7D,33,00,70,FE,FF,FF,C0,
0,00000480,false,Rx,0,8,C2,2C,00,00,19,40,00,B7,
0,00000588,false,Rx,0,8,0B,00,70,00,00,80,00,00,
0,00000284,false,Rx,0,6,0F,0F,00,00,00,00,00,00,
344000,00000010,false,Rx,0,7,55,DC,A5,D3,53,78,80,00,
0,00000280,false,Rx,0,8,A3,8A,00,00,33,FA,28,33,
0,00000288,false,Rx,0,8,E8,33,D1,00,00,75,75,53,
0,00000380,false,Rx,0,8,30,00,00,96,20,00,00,FE,
0,00000488,false,Rx,0,8,6D,33,00,70,FE,FF,FF,D0,
353000,00000580,false,Rx,0,8,81,00,00,7F,00,F0,47,01,
0,00000280,false,Rx,0,8,A3,8A,00,00,33,FA,28,33,
0,00000288,false,Rx,0,8,E8,33,D1,00,00,75,75,53,
0,00000380,false,Rx,0,8,30,00,00,96,20,00,00,FE,
0,00000488,false,Rx,0,8,5D,33,00,70,FE,FF,FF,E0,
0,00000480,false,Rx,0,8,1C,2C,00,00,19,40,00,69,
0,00000284,false,Rx,0,6,00,00,00,00,00,00,00,00,
361000,00000588,false,Rx,0,8,0B,00,70,00,00,80,00,00,
0,00000280,false,Rx,0,8,A3,8A,00,00,33,FA,28,33,
0,00000288,false,Rx,0,8,E8,33,D1,00,00,75,75,53,
0,00000380,false,Rx,0,8,30,00,00,96,20,00,00,FE,
0,00000488,false,Rx,0,8,4D,33,00,70,FE,FF,FF,F0,
0,00000280,false,Rx,0,8,A3,8A,00,00,33,FA,28,33,
0,00000288,false,Rx,0,8,2C,33,D1,00,00,75,75,53,
0,00000380,false,Rx,0,8,30,00,00,96,20,00,00,FE,
0,00000488,false,Rx,0,8,42,33,00,70,FE,FF,00,00,
0,00000480,false,Rx,0,8,1C,2C,00,00,19,40,00,69,
0,00000284,false,Rx,0,6,01,01,00,00,00,00,00,00,
0,00000588,false,Rx,0,8,0B,00,70,00,00,80,00,00,
0,00000280,false,Rx,0,8,A3,8A,00,00,33,FA,28,33,
0,00000288,false,Rx,0,8,2C,33,D1,00,00,75,75,53,
0,00000380,false,Rx,0,8,30,00,00,96,20,00,00,FE,
0,00000488,false,Rx,0,8,AD,33,00,70,FE,FF,FF,10,
0,00000280,false,Rx,0,8,A3,8A,00,00,33,FA,28,33,
0,00000288,false,Rx,0,8,2C,33,D1,00,00,75,75,53,
0,00000380,false,Rx,0,8,30,00,00,96,20,00,00,FE,
0,00000488,false,Rx,0,8,62,33,00,70,FE,FF,00,20,
0,00000480,false,Rx,0,8,1C,2C,00,00,19,40,00,69,
0,00000284,false,Rx,0,6,02,02,00,00,00,00,00,00,
0,00000588,false,Rx,0,8,0B,00,70,00,00,80,00,00,
406000,00000010,false,Rx,0,7,57,DE,A7,D5,5B,F5,80,00,
0,00000280,false,Rx,0,8,A3,8A,00,00,33,FA,28,33,
0,00000288,false,Rx,0,8,2C,33,D1,00,00,75,75,53,
0,00000380,false,Rx,0,8,30,00,00,96,20,00,00,FE,
0,00000488,false,Rx,0,8,72,33,00,70,FE,FF,00,30,
0,00000280,false,Rx,0,8,A3,8A,00,00,33,FA,28,33,
0,00000288,false,Rx,0,8,64,33,D1,00,00,75,75,53,
0,00000380,false,Rx,0,8,30,00,00,96,20,00,00,FE,
0,00000488,false,Rx,0,8,02,33,00,70,FE,FF,00,40,
0,00000480,false,Rx,0,8,1C,2C,00,00,19,40,00,69,
0,00000588,false,Rx,0,8,0B,00,70,00,00,80,00,00,
0,00000284,false,Rx,0,6,03,03,00,00,00,00,00,00,
0,00000280,false,Rx,0,8,A3,8A,00,00,33,FA,28,33,
0,00000288,false,Rx,0,8,64,33,D1,00,00,75,75,53,
0,00000380,false,Rx,0,8,30,00,00,96,20,00,00,FE,
0,00000488,false,Rx,0,8,ED,33,00,70,FE,FF,FF,50,
0,00000280,false,Rx,0,8,A3,8A,00,00,33,FA,28,33,
0,00000288,false,Rx,0,8,64,33,D1,00,00,75,75,53,
0,00000380,false,Rx,0,8,30,00,00,96,20,00,00,FE,
0,00000488,false,Rx,0,8,DD,33,00,70,FE,FF,FF,60,
0,00000480,false,Rx,0,8,54,2C,00,00,19,40,00,21,
0,00000284,false,Rx,0,6,04,04,00,00,00,00,00,00,
0,00000588,false,Rx,0,8,0B,00,70,00,00,80,00,00,
0,00000280,false,Rx,0,8,A3,8A,00,00,33,FA,28,33,
0,00000288,false,Rx,0,8,64,33,D1,00,00,75,75,53,
0,00000380,false,Rx,0,8,30,00,00,96,20,00,00,FE,
0,00000488,false,Rx,0,8,CD,33,00,70,FE,FF,FF,70,
0,00000280,false,Rx,0,8,A3,8A,00,00,33,FA,28,33,
0,00000288,false,Rx,0,8,8A,33,D1,00,00,75,75,53,
0,00000380,false,Rx,0,8,30,00,00,96,20,00,00,FE,
0,00000488,false,Rx,0,8,3D,33,00,70,FE,FF,FF,80,
0,00000480,false,Rx,0,8,54,2C,00,00,19,40,00,21,
0,00000284,false,Rx,0,6,05,05,00,00,00,00,00,00,
463000,00000588,false,Rx,0,8,0B,00,70,00,00,80,00,00,
0,00000010,false,Rx,0,7,55,DC,A5,D3,53,78,80,00,
0,00000280,false,Rx,0,8,A3,8A,00,00,33,FA,28,33,
0,00000288,false,Rx,0,8,8A,33,D1,00,00,75,75,53,
0,00000380,false,Rx,0,8,30,00,00,96,20,00,00,FE,
0,00000488,false,Rx,0,8,2D,33,00,70,FE,FF,FF,90,
0,00000280,false,Rx,0,8,A3,8A,00,00,33,FA,28,33,
0,00000288,false,Rx,0,8,8A,33,D1,00,00,75,75,53,
0,00000380,false,Rx,0,8,30,00,00,96,20,00,00,FE,
0,00000488,false,Rx,0,8,1D,33,00,70,FE,FF,FF,A0,
0,00000480,false,Rx,0,8,54,2C,00,00,19,40,00,21,
0,00000588,false,Rx,0,8,0B,00,70,00,00,80,00,00,
484000,00000284,false,Rx,0,6,06,06,00,00,00,00,00,00,
0,00000280,false,Rx,0,8,A3,8A,00,00,33,FA,28,33,
0,00000288,false,Rx,0,8,8A,33,D1,00,00,75,75,53,
0,00000380,false,Rx,0,8,30,00,00,96,20,00,00,FE,
492000,00000488,false,Rx,0,8,0D,33,00,70,FE,FF,FF,B0,
0,00000280,false,Rx,0,8,B3,8A,00,00,33,FA,28,33,
0,00000288,false,Rx,0,8,E8,33,D1,00,00,75,75,53,
0,00000380,false,Rx,0,8,30,00,00,96,20,00,00,FE,
0,00000488,false,Rx,0,8,7D,33,00,70,FE,FF,FF,C0,
0,00000480,false,Rx,0,8,54,2C,00,00,19,40,00,21,
0,00000284,false,Rx,0,6,07,07,00,00,00,00,00,00,
504000,00000588,false,Rx,0,8,0B,00,70,00,00,80,00,00,
0,00000280,false,Rx,0,8,B3,8A,00,00,33,FA,28,33,
0,00000288,false,Rx,0,8,E8,33,D1,00,00,75,75,53,
0,00000380,false,Rx,0,8,30,00,00,96,20,00,00,FE,
0,00000488,false,Rx,0,8,6D,33,00,70,FE,FF,FF,D0,
517000,00000280,false,Rx,0,8,B3,8A,00,00,33,FA,28,33,
0,00000288,false,Rx,0,8,E8,33,D1,00,00,75,75,53,
0,00000380,false,Rx,0,8,30,00,00,96,20,00,00,FE,
0,00000488,false,Rx,0,8,5D,33,00,70,FE,FF,FF,E0,
0,00000480,false,Rx,0,8,84,2C,00,00,19,40,00,F1,
0,00000284,false,Rx,0,6,08,08,00,00,00,00,00,00,
0,00000588,false,Rx,0,8,0B,00,70,00,00,80,00,00,
525000,00000010,false,Rx,0,7,57,DE,A7,D5,5B,F5,80,00,
0,00000280,false,Rx,0,8,B3,8A,00,00,33,FA,28,33,
0,00000288,false,Rx,0,8,E8,33,D1,00,00,75,75,53,
0,00000380,false,Rx,0,8,30,00,00,96,20,00,00,FE,
0,00000488,false,Rx,0,8,4D,33,00,70,FE,FF,FF,F0,
0,00000280,false,Rx,0,8,B3,8A,00,00,33,FA,28,33,
0,00000288,false,Rx,0,8,2C,33,D1,00,00,75,75,53,
0,00000380,false,Rx,0,8,30,00,00,96,20,00,00,FE,
0,00000488,false,Rx,0,8,42,33,00,70,FE,FF,00,00,
0,00000480,false,Rx,0,8,84,2C,00,00,19,40,00,F1,
0,00000284,false,Rx,0,6,09,09,00,00,00,00,00,00,
0,00000588,false,Rx,0,8,0B,00,70,00,00,80,00,00,
0,00000280,false,Rx,0,8,B3,8A,00,00,33,FA,28,33,
0,00000288,false,Rx,0,8,2C,33,D1,00,00,75,75,53,
0,00000380,false,Rx,0,8,30,00,00,96,20,00,00,FE,
0,00000488,false,Rx,0,8,AD,33,00,70,FE,FF,FF,10,
0,00000280,false,Rx,0,8,B3,8A,00,00,33,FA,28,33,
0,00000288,false,Rx,0,8,2C,33,D1,00,00,75,75,53,
0,00000380,false,Rx,0,8,30,00,00,96,20,00,00,FE,
0,00000488,false,Rx,0,8,62,33,00,70,FE,FF,00,20,
0,00000480,false,Rx,0,8,84,2C,00,00,19,40,00,F1,
0,00000588,false,Rx,0,8,0B,00,70,00,00,80,00,00,
0,00000284,false,Rx,0,6,0A,0A,00,00,00,00,00,00,
0,00000280,false,Rx,0,8,B3,8A,00,00,33,FA,28,33,
0,00000288,false,Rx,0,8,2C,33,D1,00,00,75,75,53,
0,00000380,false,Rx,0,8,30,00,00,96,20,00,00,FE,
0,00000488,false,Rx,0,8,72,33,00,70,FE,FF,00,30,
0,00000280,false,Rx,0,8,B3,8A,00,00,33,FA,28,33,
0,00000288,false,Rx,0,8,64,33,D1,00,00,75,75,53,
0,00000380,false,Rx,0,8,30,00,00,96,20,00,00,FE,
0,00000488,false,Rx,0,8,02,33,00,70,FE,FF,00,40,
0,00000480,false,Rx,0,8,84,2C,00,00,19,40,00,F1,
0,00000284,false,Rx,0,6,0B,0B,00,00,00,00,00,00,
0,00000588,false,Rx,0,8,0B,00,70,00,00,80,00,00,
586000,00000010,false,Rx,0,7,55,DC,A5,D3,53,78,80,00,
0,00000280,false,Rx,0,8,B3,8A,00,00,33,FA,28,33,
0,00000288,false,Rx,0,8,64,33,D1,00,00,75,75,53,
0,00000380,false,Rx,0,8,30,00,00,96,20,00,00,FE,
0,00000488,false,Rx,0,8,ED,33,00,70,FE,FF,FF,50,
0,00000280,false,Rx,0,8,B3,8A,00,00,33,FA,28,33,
0,00000288,false,Rx,0,8,64,33,D1,00,00,75,75,53,
0,00000380,false,Rx,0,8,30,00,00,96,20,00,00,FE,
0,00000488,false,Rx,0,8,DD,33,00,70,FE,FF,FF,60,
0,00000480,false,Rx,0,8,C2,2C,00,00,19,40,00,B7,
0,00000284,false,Rx,0,6,0C,0C,00,00,00,00,00,00,
0,00000588,false,Rx,0,8,0B,00,70,00,00,80,00,00,
0,00000280,false,Rx,0,8,B3,8A,00,00,33,FA,28,33,
0,00000288,false,Rx,0,8,64,33,D1,00,00,75,75,53,
0,00000380,false,Rx,0,8,30,00,00,96,20,00,00,FE,
0,00000488,false,Rx,0,8,CD,33,00,70,FE,FF,FF,70,
0,00000280,false,Rx,0,8,B3,8A,00,00,33,FA,28,33,
0,00000288,false,Rx,0,8,8A,33,D1,00,00,75,75,53,
0,00000380,false,Rx,0,8,30,00,00,96,20,00,00,FE,
0,00000488,false,Rx,0,8,3D,33,00,70,FE,FF,FF,80,
0,00000480,false,Rx,0,8,C2,2C,00,00,19,40,00,B7,
0,00000284,false,Rx,0,6,0D,0D,00,00,00,00,00,00,
0,00000588,false,Rx,0,8,0B,00,70,00,00,80,00,00,
0,00000280,false,Rx,0,8,B3,8A,00,00,33,FA,28,33,
0,00000288,false,Rx,0,8,8A,33,D1,00,00,75,75,53,
0,00000380,false,Rx,0,8,30,00,00,96,20,00,00,FE,
0,00000488,false,Rx,0,8,2D,33,00,70,FE,FF,FF,90,
0,00000280,false,Rx,0,8,B3,8A,00,00,33,FA,28,33,
0,00000288,false,Rx,0,8,8A,33,D1,00,00,75,75,53,
0,00000380,false,Rx,0,8,30,00,00,96,20,00,00,FE,
0,00000488,false,Rx,0,8,1D,33,00,70,FE,FF,FF,A0,
0,00000480,false,Rx,0,8,C2,2C,00,00,19,40,00,B7,
0,00000284,false,Rx,0,6,0E,0E,00,00,00,00,00,00,
0,00000588,false,Rx,0,8,0B,00,70,00,00,80,00,00,
0,00000010,false,Rx,0,7,57,DE,A7,D5,5B,F5,80,00,
0,00000280,false,Rx,0,8,B3,8A,00,00,33,FA,28,33,
0,00000288,false,Rx,0,8,8A,33,D1,00,00,75,75,53,
0,00000380,false,Rx,0,8,30,00,00,96,20,00,00,FE,
0,00000488,false,Rx,0,8,0D,33,00,70,FE,FF,FF,B0,
0,00000280,false,Rx,0,8,B3,8A,00,00,33,FA,28,33,
0,00000288,false,Rx,0,8,E8,33,D1,00,00,75,75,53,
0,00000380,false,Rx,0,8,30,00,00,96,20,00,00,FE,
0,00000488,false,Rx,0,8,7D,33,00,70,FE,FF,FF,C0,
0,00000480,false,Rx,0,8,C2,2C,00,00,19,40,00,B7,
664000,00000588,false,Rx,0,8,0B,00,70,00,00,80,00,00,
0,00000284,false,Rx,0,6,0F,0F,00,00,00,00,00,00,
0,00000280,false,Rx,0,8,B3,8A,00,00,33,FA,28,33,
0,00000288,false,Rx,0,8,E8,33,D1,00,00,75,75,53,
0,00000380,false,Rx,0,8,30,00,00,96,20,00,00,FE,
672000,00000488,false,Rx,0,8,6D,33,00,70,FE,FF,FF,D0,
0,00000280,false,Rx,0,8,B3,8A,00,00,33,FA,28,33,
0,00000288,false,Rx,0,8,E8,33,D1,00,00,75,75,53,
0,00000380,false,Rx,0,8,30,00,00,96,20,00,00,FE,
0,00000488,false,Rx,0,8,5D,33,00,70,FE,FF,FF,E0,
0,00000480,false,Rx,0,8,1C,2C,00,00,19,40,00,69,
0,00000284,false,Rx,0,6,00,00,00,00,00,00,00,00,
685000,00000588,false,Rx,0,8,0B,00,70,00,00,80,00,00,
0,00000280,false,Rx,0,8,B3,8A,00,00,33,FA,28,33,
0,00000288,false,Rx,0,8,E8,33,D1,00,00,75,75,53,
0,00000380,false,Rx,0,8,30,00,00,96,20,00,00,FE,
0,00000488,false,Rx,0,8,4D,33,00,70,FE,FF,FF,F0,
0,00000280,false,Rx,0,8,B3,8A,00,00,33,FA,28,33,
0,00000288,false,Rx,0,8,2C,33,D1,00,00,75,75,53,
0,00000380,false,Rx,0,8,30,00,00,96,20,00,00,FE,
0,00000488,false,Rx,0,8,42,33,00,70,FE,FF,00,00,
0,00000480,false,Rx,0,8,1C,2C,00,00,19,40,00,69,
0,00000284,false,Rx,0,6,01,01,00,00,00,00,00,00,
705000,00000588,false,Rx,0,8,0B,00,70,00,00,80,00,00,
0,00000010,false,Rx,0,7,55,DC,A5,D3,53,78,80,00,
0,00000280,false,Rx,0,8,B3,8A,00,00,33,FA,28,33,
0,00000288,false,Rx,0,8,2C,33,D1,00,00,75,75,53,
0,00000380,false,Rx,0,8,30,00,00,96,20,00,00,FE,
0,00000488,false,Rx,0,8,AD,33,00,70,FE,FF,FF,10,
0,00000280,false,Rx,0,8,B3,8A,00,00,33,FA,28,33,
0,00000288,false,Rx,0,8,2C,33,D1,00,00,75,75,53,
0,00000380,false,Rx,0,8,30,00,00,96,20,00,00,FE,
0,00000488,false,Rx,0,8,62,33,00,70,FE,FF,00,20,
0,00000480,false,Rx,0,8,1C,2C,00,00,19,40,00,69,
0,00000284,false,Rx,0,6,02,02,00,00,00,00,00,00,
721000,00000588,false,Rx,0,8,0B,00,70,00,00,80,00,00,
0,00000280,false,Rx,0,8,B3,8A,00,00,33,FA,28,33,
0,00000288,false,Rx,0,8,2C,33,D1,00,00,75,75,53,
0,00000380,false,Rx,0,8,30,00,00,96,20,00,00,FE,
734000,00000488,false,Rx,0,8,72,33,00,70,FE,FF,00,30,
0,00000280,false,Rx,0,8,B3,8A,00,00,33,FA,28,33,
0,00000288,false,Rx,0,8,64,33,D1,00,00,75,75,53,
0,00000380,false,Rx,0,8,30,00,00,96,20,00,00,FE,
0,00000488,false,Rx,0,8,02,33,00,70,FE,FF,00,40,
0,00000480,false,Rx,0,8,1C,2C,00,00,19,40,00,69,
0,00000588,false,Rx,0,8,0B,00,70,00,00,80,00,00,
0,00000284,false,Rx,0,6,03,03,00,00,00,00,00,00,
0,00000280,false,Rx,0,8,B3,8A,00,00,33,FA,28,33,
0,00000288,false,Rx,0,8,64,33,D1,00,00,75,75,53,
0,00000380,false,Rx,0,8,30,00,00,96,20,00,00,FE,
0,00000488,false,Rx,0,8,ED,33,00,70,FE,FF,FF,50,
0,00000280,false,Rx,0,8,B3,8A,00,00,33,FA,28,33,
0,00000288,false,Rx,0,8,64,33,D1,00,00,75,75,53,
0,00000380,false,Rx,0,8,30,00,00,96,20,00,00,FE,
0,00000488,false,Rx,0,8,DD,33,00,70,FE,FF,FF,60,
0,00000480,false,Rx,0,8,54,2C,00,00,19,40,00,21,
0,00000284,false,Rx,0,6,04,04,00,00,00,00,00,00,
0,00000588,false,Rx,0,8,0B,00,70,00,00,80,00,00,
766000,00000010,false,Rx,0,7,57,DE,A7,D5,5B,F5,80,00,
0,00000280,false,Rx,0,8,B3,8A,00,00,33,FA,28,33,
0,00000288,false,Rx,0,8,64,33,D1,00,00,75,75,53,
0,00000380,false,Rx,0,8,30,00,00,96,20,00,00,FE,
0,00000488,false,Rx,0,8,CD,33,00,70,FE,FF,FF,70,
0,00000280,false,Rx,0,8,B3,8A,00,00,33,FA,28,33,
0,00000288,false,Rx,0,8,8A,33,D1,00,00,75,75,53,
0,00000380,false,Rx,0,8,30,00,00,96,20,00,00,FE,
0,00000488,false,Rx,0,8,3D,33,00,70,FE,FF,FF,80,
0,00000480,false,Rx,0,8,54,2C,00,00,19,40,00,21,
0,00000588,false,Rx,0,8,0B,00,70,00,00,80,00,00,
783000,00000284,false,Rx,0,6,05,05,00,00,00,00,00,00,
0,00000280,false,Rx,0,8,B3,8A,00,00,33,FA,28,33,
0,00000288,false,Rx,0,8,8A,33,D1,00,00,75,75,53,
0,00000380,false,Rx,0,8,30,00,00,96,20,00,00,FE,
0,00000488,false,Rx,0,8,2D,33,00,70,FE,FF,FF,90,
0,00000280,false,Rx,0,8,B3,8A,00,00,33,FA,28,33,
0,00000288,false,Rx,0,8,8A,33,D1,00,00,75,75,53,
0,00000380,false,Rx,0,8,30,00,00,96,20,00,00,FE,
0,00000488,false,Rx,0,8,1D,33,00,70,FE,FF,FF,A0,
0,00000480,false,Rx,0,8,54,2C,00,00,19,40,00,21,
0,00000588,false,Rx,0,8,0B,00,70,00,00,80,00,00,
0,00000284,false,Rx,0,6,06,06,00,00,00,00,00,00,
0,00000280,false,Rx,0,8,B3,8A,00,00,33,FA,28,33,
0,00000288,false,Rx,0,8,8A,33,D1,00,00,75,75,53,
0,00000380,false,Rx,0,8,30,00,00,96,20,00,00,FE,
0,00000488,false,Rx,0,8,0D,33,00,70,FE,FF,FF,B0,
0,00000280,false,Rx,0,8,B3,8A,00,00,33,FA,28,33,
0,00000288,false,Rx,0,8,E8,33,D1,00,00,75,75,53,
0,00000380,false,Rx,0,8,30,00,00,96,20,00,00,FE,
0,00000488,false,Rx,0,8,7D,33,00,70,FE,FF,FF,C0,
0,00000480,false,Rx,0,8,54,2C,00,00,19,40,00,21,
0,00000588,false,Rx,0,8,0B,00,70,00,00,80,00,00,
0,00000284,false,Rx,0,6,07,07,00,00,00,00,00,00,
0,00000010,false,Rx,0,7,55,DC,A5,D3,53,78,80,00,
0,00000280,false,Rx,0,8,B3,8A,00,00,33,FA,28,33,
0,00000288,false,Rx,0,8,E8,33,D1,00,00,75,75,53,
0,00000380,false,Rx,0,8,30,00,00,96,20,00,00,FE,
0,00000488,false,Rx,0,8,6D,33,00,70,FE,FF,FF,D0,
0,00000280,false,Rx,0,8,B3,8A,00,00,33,FA,28,33,
0,00000288,false,Rx,0,8,E8,33,D1,00,00,75,75,53,
0,00000380,false,Rx,0,8,30,00,00,96,20,00,00,FE,
0,00000488,false,Rx,0,8,5D,33,00,70,FE,FF,FF,E0,
0,00000480,false,Rx,0,8,84,2C,00,00,19,40,00,F1,
0,00000588,false,Rx,0,8,0B,00,70,00,00,80,00,00,
0,00000284,false,Rx,0,6,08,08,00,00,00,00,00,00,
848000,00000280,false,Rx,0,8,B3,8A,00,00,33,FA,28,33,
0,00000288,false,Rx,0,8,E8,33,D1,00,00,75,75,53,
0,00000380,false,Rx,0,8,30,00,00,96,20,00,00,FE,
0,00000488,false,Rx,0,8,4D,33,00,70,FE,FF,FF,F0,
0,00000280,false,Rx,0,8,B3,8A,00,00,33,FA,28,33,
0,00000288,false,Rx,0,8,2C,33,D1,00,00,75,75,53,
0,00000380,false,Rx,0,8,30,00,00,96,20,00,00,FE,
0,00000488,false,Rx,0,8,42,33,00,70,FE,FF,00,00,
0,00000480,false,Rx,0,8,84,2C,00,00,19,40,00,F1,
865000,00000588,false,Rx,0,8,0B,00,70,00,00,80,00,00,
0,00000284,false,Rx,0,6,09,09,00,00,00,00,00,00,
0,00000280,false,Rx,0,8,B3,8A,00,00,33,FA,28,33,
0,00000288,false,Rx,0,8,2C,33,D1,00,00,75,75,53,
0,00000380,false,Rx,0,8,30,00,00,96,20,00,00,FE,
873000,00000488,false,Rx,0,8,AD,33,00,70,FE,FF,FF,10,
0,00000280,false,Rx,0,8,B3,8A,00,00,33,FA,28,33,
0,00000288,false,Rx,0,8,2C,33,D1,00,00,75,75,53,
0,00000380,false,Rx,0,8,30,00,00,96,20,00,00,FE,
0,00000488,false,Rx,0,8,62,33,00,70,FE,FF,00,20,
0,00000480,false,Rx,0,8,84,2C,00,00,19,40,00,F1,
0,00000588,false,Rx,0,8,0B,00,70,00,00,80,00,00,
0,00000284,false,Rx,0,6,0A,0A,00,00,00,00,00,00,
0,00000010,false,Rx,0,7,57,DE,A7,D5,5B,F5,80,00,
0,00000280,false,Rx,0,8,B3,8A,00,00,33,FA,28,33,
0,00000288,false,Rx,0,8,2C,33,D1,00,00,75,75,53,
0,00000380,false,Rx,0,8,30,00,00,96,20,00,00,FE,
0,00000488,false,Rx,0,8,72,33,00,70,FE,FF,00,30,
0,00000280,false,Rx,0,8,B3,8A,00,00,33,FA,28,33,
0,00000288,false,Rx,0,8,64,33,D1,00,00,75,75,53,
0,00000380,false,Rx,0,8,30,00,00,96,20,00,00,FE,
0,00000488,false,Rx,0,8,00,33,00,72,FE,FF,00,40,
0,00000480,false,Rx,0,8,84,2C,00,00,19,40,00,F1,
0,00000588,false,Rx,0,8,0B,00,72,00,00,80,00,00,
0,00000284,false,Rx,0,6,0B,0B,00,00,00,00,00,00,
0,00000280,false,Rx,0,8,B3,8A,00,00,33,FA,28,33,
0,00000288,false,Rx,0,8,64,33,D1,00,00,75,75,53,
0,00000380,false,Rx,0,8,30,00,00,96,20,00,00,FE,
0,00000488,false,Rx,0,8,EF,33,00,72,FE,FF,FF,50,
0,00000280,false,Rx,0,8,B3,8A,00,00,33,FA,28,33,
0,00000288,false,Rx,0,8,64,33,D1,00,00,75,75,53,
0,00000380,false,Rx,0,8,30,00,00,96,20,00,00,FE,
0,00000488,false,Rx,0,8,DF,33,00,72,FE,FF,FF,60,
0,00000480,false,Rx,0,8,C2,2C,00,00,19,40,00,B7,
0,00000588,false,Rx,0,8,0B,00,72,00,00,80,00,00,
0,00000284,false,Rx,0,6,0C,0C,00,00,00,00,00,00,
0,00000280,false,Rx,0,8,B3,8A,00,00,33,FA,28,33,
0,00000288,false,Rx,0,8,64,33,D1,00,00,75,75,53,
0,00000380,false,Rx,0,8,30,00,00,96,20,00,00,FE,
0,00000488,false,Rx,0,8,CF,33,00,72,FE,FF,FF,70,
939000,00000280,false,Rx,0,8,B3,8A,00,00,33,FA,28,33,
0,00000288,false,Rx,0,8,8A,33,D1,00,00,75,75,53,
0,00000380,false,Rx,0,8,30,00,00,96,20,00,00,FE,
0,00000488,false,Rx,0,8,3F,33,00,72,FE,FF,FF,80,
0,00000480,false,Rx,0,8,C2,2C,00,00,19,40,00,B7,
0,00000588,false,Rx,0,8,0B,00,72,00,00,80,00,00,
0,00000284,false,Rx,0,6,0D,0D,00,00,00,00,00,00,
947000,00000010,false,Rx,0,7,55,DC,A5,D3,53,78,80,00,
0,00000280,false,Rx,0,8,B3,8A,00,00,33,FA,28,33,
0,00000288,false,Rx,0,8,8A,33,D1,00,00,75,75,53,
0,00000380,false,Rx,0,8,30,00,00,96,20,00,00,FE,
0,00000488,false,Rx,0,8,2F,33,00,72,FE,FF,FF,90,
0,00000280,false,Rx,0,8,B3,8A,00,00,33,FA,28,33,
0,00000288,false,Rx,0,8,8A,33,D1,00,00,75,75,53,
0,00000380,false,Rx,0,8,30,00,00,96,20,00,00,FE,
0,00000488,false,Rx,0,8,1F,33,00,72,FE,FF,FF,A0,
0,00000480,false,Rx,0,8,C2,2C,00,00,19,40,00,B7,
0,00000588,false,Rx,0,8,0B,00,72,00,00,80,00,00,
963000,00000284,false,Rx,0,6,0E,0E,00,00,00,00,00,00,
0,00000280,false,Rx,0,8,B3,8A,00,00,33,FA,28,33,
0,00000288,false,Rx,0,8,8A,33,D1,00,00,75,75,53,
0,00000380,false,Rx,0,8,30,00,00,96,20,00,00,FE,
0,00000488,false,Rx,0,8,0F,33,00,72,FE,FF,FF,B0,
0,00000280,false,Rx,0,8,B3,8A,00,00,33,FA,28,33,
0,00000288,false,Rx,0,8,E8,33,D1,00,00,75,75,53,
0,00000380,false,Rx,0,8,30,00,00,96,20,00,00,FE,
0,00000488,false,Rx,0,8,7F,33,00,72,FE,FF,FF,C0,
0,00000480,false,Rx,0,8,C2,2C,00,00,19,40,00,B7,
0,00000588,false,Rx,0,8,0B,00,72,00,00,80,00,00,
0,00000284,false,Rx,0,6,0F,0F,00,00,00,00,00,00,
988000,00000280,false,Rx,0,8,B3,8A,00,00,33,FA,28,33,
0,00000288,false,Rx,0,8,E8,33,D1,00,00,75,75,53,
0,00000380,false,Rx,0,8,30,00,00,96,20,00,00,FE,
0,00000488,false,Rx,0,8,6F,33,00,72,FE,FF,FF,D0,
0,00000280,false,Rx,0,8,B3,8A,00,00,33,FA,28,33,
0,00000288,false,Rx,0,8,E8,33,D1,00,00,75,75,53,
0,00000380,false,Rx,0,8,30,00,00,96,20,00,00,FE,
0,00000488,false,Rx,0,8,5F,33,00,72,FE,FF,FF,E0,
0,00000480,false,Rx,0,8,1C,2C,00,00,19,40,00,69,
0,00000588,false,Rx,0,8,0B,00,72,00,00,80,00,00,
0,00000284,false,Rx,0,6,00,00,00,00,00,00,00,00,
8000,00000010,false,Rx,0,7,57,DE,A7,D5,5B,F5,80,00,
0,00000280,false,Rx,0,8,B3,8A,00,00,33,FA,28,33,
0,00000288,false,Rx,0,8,E8,33,D1,00,00,75,75,53,
0,00000380,false,Rx,0,8,30,00,00,96,20,00,00,FE,
0,00000488,false,Rx,0,8,4F,33,00,72,FE,FF,FF,F0,
0,00000280,false,Rx,0,8,B3,8A,00,00,33,FA,28,33,
0,00000288,false,Rx,0,8,2C,33,D1,00,00,75,75,53,
0,00000380,false,Rx,0,8,30,00,00,96,20,00,00,FE,
0,00000488,false,Rx,0,8,40,33,00,72,FE,FF,00,00,
0,00000480,false,Rx,0,8,1C,2C,00,00,19,40,00,69,
0,00000588,false,Rx,0,8,0B,00,72,00,00,80,00,00,
0,00000284,false,Rx,0,6,01,01,00,00,00,00,00,00,
0,00000280,false,Rx,0,8,B3,8A,00,00,33,FA,28,33,
0,00000288,false,Rx,0,8,2C,33,D1,00,00,75,74,53,
0,00000380,false,Rx,0,8,30,00,00,96,20,00,00,FE,
0,00000488,false,Rx,0,8,AF,33,00,72,FE,FF,FF,10,
0,00000280,false,Rx,0,8,B3,8A,00,00,33,FA,28,33,
0,00000288,false,Rx,0,8,2C,33,D1,00,00,75,74,53,
0,00000380,false,Rx,0,8,30,00,00,96,20,00,00,FE,
0,00000488,false,Rx,0,8,60,33,00,72,FE,FF,00,20,
0,00000480,false,Rx,0,8,1C,2C,00,00,19,40,00,69,
45000,00000588,false,Rx,0,8,0B,00,72,00,00,80,00,00,
0,00000284,false,Rx,0,6,02,02,00,00,00,00,00,00,
0,00000280,false,Rx,0,8,B3,8A,00,00,33,FA,28,33,
0,00000288,false,Rx,0,8,2C,33,D1,00,00,75,74,53,
0,00000380,false,Rx,0,8,30,00,00,96,20,00,00,FE,
0,00000488,false,Rx,0,8,70,33,00,72,FE,FF,00,30,
0,00000280,false,Rx,0,8,B3,8A,00,00,33,FA,28,33,
0,00000288,false,Rx,0,8,64,33,D1,00,00,75,74,53,
0,00000380,false,Rx,0,8,30,00,00,96,20,00,00,FE,
0,00000488,false,Rx,0,8,00,33,00,72,FE,FF,00,40,
0,00000480,false,Rx,0,8,1C,2C,00,00,19,40,00,69,
0,00000588,false,Rx,0,8,0B,00,72,00,00,80,00,00,
0,00000284,false,Rx,0,6,03,03,00,00,00,00,00,00,
0,00000010,false,Rx,0,7,55,DC,A5,D3,53,78,80,00,
0,00000280,false,Rx,0,8,B3,8A,00,00,33,FA,28,33,
0,00000288,false,Rx,0,8,64,33,D1,00,00,75,74,53,
0,00000380,false,Rx,0,8,30,00,00,96,20,00,00,FE,
0,00000488,false,Rx,0,8,EF,33,00,72,FE,FF,FF,50,
0,00000280,false,Rx,0,8,B3,8A,00,00,33,FA,28,33,
0,00000288,false,Rx,0,8,64,33,D1,00,00,75,74,53,
0,00000380,false,Rx,0,8,30,00,00,96,20,00,00,FE,
0,00000488,false,Rx,0,8,DF,33,00,72,FE,FF,FF,60,
0,00000480,false,Rx,0,8,54,2C,00,00,19,40,00,21,
0,00000588,false,Rx,0,8,0B,00,72,00,00,80,00,00,
86000,00000284,false,Rx,0,6,04,04,00,00,00,00,00,00,
0,00000280,false,Rx,0,8,B3,8A,00,00,33,FA,28,33,
0,00000288,false,Rx,0,8,64,33,D1,00,00,75,74,53,
0,00000380,false,Rx,0,8,30,00,00,96,20,00,00,FE,
94000,00000488,false,Rx,0,8,CF,33,00,72,FE,FF,FF,70,
0,00000280,false,Rx,0,8,B3,8A,00,00,33,FA,28,33,
0,00000288,false,Rx,0,8,8A,33,D1,00,00,75,74,53,
0,00000380,false,Rx,0,8,30,00,00,96,20,00,00,FE,
0,00000488,false,Rx,0,8,3F,33,00,72,FE,FF,FF,80,
0,00000480,false,Rx,0,8,54,2C,00,00,19,40,00,21,
0,00000588,false,Rx,0,8,0B,00,72,00,00,80,00,00,
0,00000284,false,Rx,0,6,05,05,00,00,00,00,00,00,
0,00000280,false,Rx,0,8,B3,8A,00,00,33,FA,28,33,
0,00000288,false,Rx,0,8,8A,33,D1,00,00,75,74,53,
0,00000380,false,Rx,0,8,30,00,00,96,20,00,00,FE,
0,00000488,false,Rx,0,8,2F,33,00,72,FE,FF,FF,90,
0,00000280,false,Rx,0,8,B3,8A,00,00,33,FA,28,33,
0,00000288,false,Rx,0,8,8A,33,D1,00,00,75,74,53,
0,00000380,false,Rx,0,8,30,00,00,96,20,00,00,FE,
0,00000488,false,Rx,0,8,1F,33,00,72,FE,FF,FF,A0,
0,00000480,false,Rx,0,8,54,2C,00,00,19,40,00,21,
0,00000588,false,Rx,0,8,0B,00,72,00,00,80,00,00,
0,00000284,false,Rx,0,6,06,06,00,00,00,00,00,00,
127000,00000010,false,Rx,0,7,57,DE,A7,D5,5B,F5,80,00,
0,00000280,false,Rx,0,8,B3,8A,00,00,33,FA,28,33,
0,00000288,false,Rx,0,8,8A,33,D1,00,00,75,74,53,
0,00000380,false,Rx,0,8,30,00,00,96,20,00,00,FE,
0,00000488,false,Rx,0,8,0F,33,00,72,FE,FF,FF,B0,
0,00000280,false,Rx,0,8,B3,8A,00,00,33,FA,28,33,
0,00000288,false,Rx,0,8,E8,33,D1,00,00,75,74,53,
0,00000380,false,Rx,0,8,30,00,00,96,20,00,00,FE,
0,00000488,false,Rx,0,8,7F,33,00,72,FE,FF,FF,C0,
0,00000480,false,Rx,0,8,54,2C,00,00,19,40,00,21,
0,00000588,false,Rx,0,8,0B,00,72,00,00,80,00,00,
0,00000284,false,Rx,0,6,07,07,00,00,00,00,00,00,
0,00000280,false,Rx,0,8,B3,8A,00,00,33,FA,28,33,
0,00000288,false,Rx,0,8,E8,33,D1,00,00,75,74,53,
0,00000380,false,Rx,0,8,30,00,00,96,20,00,00,FE,
0,00000488,false,Rx,0,8,6F,33,00,72,FE,FF,FF,D0,
0,00000280,false,Rx,0,8,B3,8A,00,00,33,FA,28,33,
0,00000288,false,Rx,0,8,E8,33,D1,00,00,75,74,53,
0,00000380,false,Rx,0,8,30,00,00,96,20,00,00,FE,
0,00000488,false,Rx,0,8,5F,33,00,72,FE,FF,FF,E0,
0,00000480,false,Rx,0,8,84,2C,00,00,19,40,00,F1,
0,00000588,false,Rx,0,8,0B,00,72,00,00,80,00,00,
164000,00000284,false,Rx,0,6,08,08,00,00,00,00,00,00,
0,00000280,false,Rx,0,8,B3,8A,00,00,33,FA,28,33,
0,00000288,false,Rx,0,8,E8,33,D1,00,00,75,74,53,
0,00000380,false,Rx,0,8,30,00,00,96,20,00,00,FE,
0,00000488,false,Rx,0,8,4F,33,00,72,FE,FF,FF,F0,
0,00000280,false,Rx,0,8,B3,8A,00,00,33,FA,28,33,
0,00000288,false,Rx,0,8,2C,33,D1,00,00,75,74,53,
0,00000380,false,Rx,0,8,30,00,00,96,20,00,00,FE,
0,00000488,false,Rx,0,8,40,33,00,72,FE,FF,00,00,
0,00000480,false,Rx,0,8,84,2C,00,00,19,40,00,F1,
0,00000588,false,Rx,0,8,0B,00,72,00,00,80,00,00,
0,00000284,false,Rx,0,6,09,09,00,00,00,00,00,00,
188000,00000010,false,Rx,0,7,55,DC,A5,D3,53,78,80,00,
0,00000280,false,Rx,0,8,B3,8A,00,00,33,FA,28,33,
0,00000288,false,Rx,0,8,2C,33,D1,00,00,75,74,53,
0,00000380,false,Rx,0,8,30,00,00,96,20,00,00,FE,
0,00000488,false,Rx,0,8,AF,33,00,72,FE,FF,FF,10,
0,00000280,false,Rx,0,8,B3,8A,00,00,33,FA,28,33,
0,00000288,false,Rx,0,8,2C,33,D1,00,00,75,74,53,
0,00000380,false,Rx,0,8,30,00,00,96,20,00,00,FE,
0,00000488,false,Rx,0,8,60,33,00,72,FE,FF,00,20,
0,00000480,false,Rx,0,8,84,2C,00,00,19,40,00,F1,
0,00000588,false,Rx,0,8,0B,00,72,00,00,80,00,00,
0,00000284,false,Rx,0,6,0A,0A,00,00,00,00,00,00,
0,00000280,false,Rx,0,8,B3,8A,00,00,33,FA,28,33,
0,00000288,false,Rx,0,8,2C,33,D1,00,00,75,74,53,
0,00000380,false,Rx,0,8,30,00,00,96,20,00,00,FE,
0,00000488,false,Rx,0,8,70,33,00,72,FE,FF,00,30,
0,00000280,false,Rx,0,8,B3,8A,00,00,33,FA,28,33,
0,00000288,false,Rx,0,8,64,33,D1,00,00,75,74,53,
0,00000380,false,Rx,0,8,30,00,00,96,20,00,00,FE,
0,00000488,false,Rx,0,8,00,33,00,72,FE,FF,00,40,
0,00000480,false,Rx,0,8,84,2C,00,00,19,40,00,F1,
225000,00000588,false,Rx,0,8,0B,00,72,00,00,80,00,00,
0,00000284,false,Rx,0,6,0B,0B,00,00,00,00,00,00,
0,00000280,false,Rx,0,8,B3,8A,00,00,33,FA,28,33,
0,00000288,false,Rx,0,8,64,33,D1,00,00,75,74,53,
0,00000380,false,Rx,0,8,30,00,00,96,20,00,00,FE,
0,00000488,false,Rx,0,8,EF,33,00,72,FE,FF,FF,50,
0,00000280,false,Rx,0,8,B3,8A,00,00,33,FA,28,33,
0,00000288,false,Rx,0,8,64,33,D1,00,00,75,74,53,
0,00000380,false,Rx,0,8,30,00,00,96,20,00,00,FE,
0,00000488,false,Rx,0,8,DF,33,00,72,FE,FF,FF,60,
0,00000480,false,Rx,0,8,C2,2C,00,00,19,40,00,B7,
246000,00000588,false,Rx,0,8,0B,00,72,00,00,80,00,00,
0,00000284,false,Rx,0,6,0C,0C,00,00,00,00,00,00,
0,00000010,false,Rx,0,7,57,DE,A7,D5,5B,F5,80,00,
0,00000280,false,Rx,0,8,B3,8A,00,00,33,FA,28,33,
0,00000288,false,Rx,0,8,64,33,D1,00,00,75,74,53,
0,00000380,false,Rx,0,8,30,00,00,96,20,00,00,FE,
0,00000488,false,Rx,0,8,CF,33,00,72,FE,FF,FF,70,
0,00000280,false,Rx,0,8,B3,8A,00,00,33,FA,28,33,
0,00000288,false,Rx,0,8,8A,33,D1,00,00,75,74,53,
0,00000380,false,Rx,0,8,30,00,00,96,20,00,00,FE,
0,00000488,false,Rx,0,8,3F,33,00,72,FE,FF,FF,80,
0,00000480,false,Rx,0,8,C2,2C,00,00,19,40,00,B7,
0,00000588,false,Rx,0,8,0B,00,72,00,00,80,00,00,
266000,00000284,false,Rx,0,6,0D,0D,00,00,00,00,00,00,
0,00000280,false,Rx,0,8,B3,8A,00,00,33,FA,28,33,
0,00000288,false,Rx,0,8,8A,33,D1,00,00,75,74,53,
0,00000380,false,Rx,0,8,30,00,00,96,20,00,00,FE,
0,00000488,false,Rx,0,8,2F,33,00,72,FE,FF,FF,90,
0,00000280,false,Rx,0,8,B3,8A,00,00,33,FA,28,33,
0,00000288,false,Rx,0,8,8A,33,D1,00,00,75,74,53,
0,00000380,false,Rx,0,8,30,00,00,96,20,00,00,FE,
0,00000488,false,Rx,0,8,1F,33,00,72,FE,FF,FF,A0,
0,00000480,false,Rx,0,8,C2,2C,00,00,19,40,00,B7,
0,00000588,false,Rx,0,8,0B,00,72,00,00,80,00,00,
0,00000284,false,Rx,0,6,0E,0E,00,00,00,00,00,00,
0,00000280,false,Rx,0,8,B3,8A,00,00,33,FA,28,33,
0,00000288,false,Rx,0,8,8A,33,D1,00,00,75,74,53,
0,00000380,false,Rx,0,8,30,00,00,96,20,00,00,FE,
295000,00000488,false,Rx,0,8,0F,33,00,72,FE,FF,FF,B0,
0,00000280,false,Rx,0,8,B3,8A,00,00,33,FA,28,33,
0,00000288,false,Rx,0,8,E8,33,D1,00,00,75,74,53,
0,00000380,false,Rx,0,8,30,00,00,96,20,00,00,FE,
0,00000488,false,Rx,0,8,7F,33,00,72,FE,FF,FF,C0,
0,00000480,false,Rx,0,8,C2,2C,00,00,19,40,00,B7,
0,00000284,false,Rx,0,6,0F,0F,00,00,00,00,00,00,
0,00000588,false,Rx,0,8,0B,00,72,00,00,80,00,00,
0,00000010,false,Rx,0,7,55,DC,A5,D3,53,78,80,00,
0,00000280,false,Rx,0,8,B3,8A,00,00,33,FA,28,33,
0,00000288,false,Rx,0,8,E8,33,D1,00,00,75,74,53,
0,00000380,false,Rx,0,8,30,00,00,96,20,00,00,FE,
0,00000488,false,Rx,0,8,6F,33,00,72,FE,FF,FF,D0,
319000,00000280,false,Rx,0,8,B3,8A,00,00,33,FA,28,33,
0,00000288,false,Rx,0,8,E8,33,D1,00,00,75,74,53,
0,00000380,false,Rx,0,8,30,00,00,96,20,00,00,FE,
0,00000488,false,Rx,0,8,5F,33,00,72,FE,FF,FF,E0,
0,00000480,false,Rx,0,8,1C,2C,00,00,19,40,00,69,
0,00000588,false,Rx,0,8,0B,00,72,00,00,80,00,00,
0,00000284,false,Rx,0,6,00,00,00,00,00,00,00,00,
0,00000280,false,Rx,0,8,B3,8A,00,00,33,FA,28,33,
0,00000288,false,Rx,0,8,E8,33,D1,00,00,75,74,53,
0,00000380,false,Rx,0,8,30,00,00,96,20,00,00,FE,
0,00000488,false,Rx,0,8,4F,33,00,72,FE,FF,FF,F0,
0,00000280,false,Rx,0,8,B3,8A,00,00,33,FA,28,33,
0,00000288,false,Rx,0,8,2C,33,D1,00,00,75,74,53,
0,00000380,false,Rx,0,8,30,00,00,96,20,00,00,FE,
0,00000488,false,Rx,0,8,40,33,00,72,FE,FF,00,00,
0,00000480,false,Rx,0,8,1C,2C,00,00,19,40,00,69,
0,00000588,false,Rx,0,8,0B,00,72,00,00,80,00,00,
344000,00000284,false,Rx,0,6,01,01,00,00,00,00,00,00,
0,00000280,false,Rx,0,8,B3,8A,00,00,33,FA,28,33,
0,00000288,false,Rx,0,8,2C,33,D1,00,00,75,74,53,
0,00000380,false,Rx,0,8,30,00,00,96,20,00,00,FE,
0,00000488,false,Rx,0,8,AF,33,00,72,FE,FF,FF,10,
356000,00000580,false,Rx,0,8,82,00,00,14,1C,93,48,14,
0,00000280,false,Rx,0,8,B3,8A,00,00,33,FA,28,33,
0,00000288,false,Rx,0,8,2C,33,D1,00,00,75,74,53,
0,00000380,false,Rx,0,8,30,00,00,96,20,00,00,FE,
0,00000488,false,Rx,0,8,60,33,00,72,FE,FF,00,20,
0,00000480,false,Rx,0,8,1C,2C,00,00,19,40,00,69,
0,00000588,false,Rx,0,8,0B,00,72,00,00,80,00,00,
0,00000284,false,Rx,0,6,02,02,00,00,00,00,00,00,
369000,00000010,false,Rx,0,7,57,DE,A7,D5,5B,F5,80,00,
0,00000280,false,Rx,0,8,B3,8A,00,00,33,FA,28,33,
0,00000288,false,Rx,0,8,2C,33,D1,00,00,75,74,53,
0,00000380,false,Rx,0,8,30,00,00,96,20,00,00,FE,
0,00000488,false,Rx,0,8,70,33,00,72,FE,FF,00,30,
0,00000280,false,Rx,0,8,B3,8A,00,00,33,FA,28,33,
0,00000288,false,Rx,0,8,64,33,D1,00,00,75,74,53,
0,00000380,false,Rx,0,8,30,00,00,96,20,00,00,FE,
0,00000488,false,Rx,0,8,00,33,00,72,FE,FF,00,40,
0,00000480,false,Rx,0,8,1C,2C,00,00,19,40,00,69,
0,00000284,false,Rx,0,6,03,03,00,00,00,00,00,00,
0,00000588,false,Rx,0,8,0B,00,72,00,00,80,00,00,
0,00000280,false,Rx,0,8,B3,8A,00,00,33,FA,28,33,
0,00000288,false,Rx,0,8,64,33,D1,00,00,75,74,53,
0,00000380,false,Rx,0,8,30,00,00,96,20,00,00,FE,
0,00000488,false,Rx,0,8,EF,33,00,72,FE,FF,FF,50,
0,00000280,false,Rx,0,8,B3,8A,00,00,33,FA,28,33,
0,00000288,false,Rx,0,8,64,33,D5,00,00,75,74,53,
0,00000380,false,Rx,0,8,B0,06,00,96,20,00,00,FE,
0,00000488,false,Rx,0,8,DF,33,00,72,FE,FF,FF,60,
0,00000480,false,Rx,0,8,54,2C,00,00,19,40,00,21,
0,00000588,false,Rx,0,8,0B,00,72,00,00,80,00,00,
0,00000284,false,Rx,0,6,04,04,00,00,00,00,00,00,
410000,00000280,false,Rx,0,8,B3,8A,00,00,33,FA,28,33,
0,00000288,false,Rx,0,8,64,33,D5,00,00,75,74,53,
0,00000380,false,Rx,0,8,B0,06,00,96,20,00,00,FE,
0,00000488,false,Rx,0,8,CF,33,00,72,FE,FF,FF,70,
0,00000280,false,Rx,0,8,B3,8A,00,00,33,FA,28,33,
0,00000288,false,Rx,0,8,8A,33,D5,00,00,75,74,53,
0,00000380,false,Rx,0,8,B0,06,00,96,20,00,00,FE,
0,00000488,false,Rx,0,8,3F,33,00,72,FE,FF,FF,80,
0,00000480,false,Rx,0,8,54,2C,00,00,19,40,00,21,
426000,00000588,false,Rx,0,8,0B,00,72,00,00,80,00,00,
0,00000284,false,Rx,0,6,05,05,00,00,00,00,00,00,
0,00000010,false,Rx,0,7,55,DC,A5,D3,53,78,80,00,
0,00000280,false,Rx,0,8,B3,8A,00,00,33,FA,28,33,
0,00000288,false,Rx,0,8,8A,33,D5,00,00,75,74,53,
0,00000380,false,Rx,0,8,B0,06,00,96,20,00,00,FE,
0,00000488,false,Rx,0,8,2F,33,00,72,FE,FF,FF,90,
0,00000280,false,Rx,0,8,B3,8A,00,00,33,FA,28,33,
0,00000288,false,Rx,0,8,8A,33,D5,00,00,75,74,53,
0,00000380,false,Rx,0,8,B0,06,00,96,20,00,00,FE,
0,00000488,false,Rx,0,8,1F,33,00,72,FE,FF,FF,A0,
0,00000480,false,Rx,0,8,54,2C,00,00,19,40,00,21,
0,00000588,false,Rx,0,8,0B,00,72,00,00,80,00,00,
446000,00000284,false,Rx,0,6,06,06,00,00,00,00,00,00,
0,00000280,false,Rx,0,8,B3,8A,00,00,33,FA,28,33,
0,00000288,false,Rx,0,8,8A,33,D5,00,00,75,74,53,
0,00000380,false,Rx,0,8,B0,06,00,96,20,00,00,FE,
0,00000488,false,Rx,0,8,0F,33,00,72,FE,FF,FF,B0,
0,00000280,false,Rx,0,8,B3,8A,00,00,33,FA,28,33,
0,00000288,false,Rx,0,8,E8,33,D5,00,00,75,74,53,
0,00000380,false,Rx,0,8,B0,06,00,96,20,00,00,FE,
0,00000488,false,Rx,0,8,7F,33,00,72,FE,FF,FF,C0,
0,00000480,false,Rx,0,8,54,2C,00,00,19,40,00,21,
0,00000284,false,Rx,0,6,07,07,00,00,00,00,00,00,
467000,00000588,false,Rx,0,8,0B,00,72,00,00,80,00,00,
0,00000280,false,Rx,0,8,B3,8A,00,00,33,FA,28,33,
0,00000288,false,Rx,0,8,E8,33,D5,00,00,75,74,53,
0,00000380,false,Rx,0,8,B0,06,00,96,20,00,00,FE,
475000,00000488,false,Rx,0,8,6F,33,00,72,FE,FF,FF,D0,
0,00000280,false,Rx,0,8,B3,8A,00,00,33,FA,28,33,
0,00000288,false,Rx,0,8,E8,33,D5,00,00,75,74,53,
0,00000380,false,Rx,0,8,B0,06,00,96,20,00,00,FE,
0,00000488,false,Rx,0,8,5F,33,00,72,FE,FF,FF,E0,
0,00000480,false,Rx,0,8,84,2C,00,00,19,40,00,F1,
0,00000588,false,Rx,0,8,0B,00,72,00,00,80,00,00,
0,00000284,false,Rx,0,6,08,08,00,00,00,00,00,00,
487000,00000010,false,Rx,0,7,57,DE,A7,D5,5B,F5,80,00,
0,00000280,false,Rx,0,8,B3,8A,00,00,33,FA,28,33,
0,00000288,false,Rx,0,8,E8,33,D5,00,00,75,74,53,
0,00000380,false,Rx,0,8,B0,06,00,96,20,00,00,FE,
0,00000488,false,Rx,0,8,4F,33,00,72,FE,FF,FF,F0,
0,00000280,false,Rx,0,8,B3,8A,00,00,33,FA,28,33,
0,00000288,false,Rx,0,8,2C,33,D5,00,00,75,74,53,
0,00000380,false,Rx,0,8,B0,0C,00,96,20,00,00,FE,
0,00000488,false,Rx,0,8,40,33,00,72,FE,FF,00,00,
0,00000480,false,Rx,0,8,84,2C,00,00,19,40,00,F1,
0,00000588,false,Rx,0,8,0B,00,72,00,00,80,00,00,
0,00000284,false,Rx,0,6,09,09,00,00,00,00,00,00,
0,00000280,false,Rx,0,8,B3,8A,00,00,33,FA,28,33,
0,00000288,false,Rx,0,8,2C,33,D5,00,00,75,74,53,
0,00000380,false,Rx,0,8,B0,0C,00,96,20,00,00,FE,
0,00000488,false,Rx,0,8,AF,33,00,72,FE,FF,FF,10,
0,00000280,false,Rx,0,8,B3,8A,00,00,33,FA,28,33,
0,00000288,false,Rx,0,8,2C,33,D5,00,00,75,74,53,
0,00000380,false,Rx,0,8,B0,0C,00,96,20,00,00,FE,
0,00000488,false,Rx,0,8,60,33,00,72,FE,FF,00,20,
0,00000480,false,Rx,0,8,84,2C,00,00,19,40,00,F1,
524000,00000588,false,Rx,0,8,0B,00,72,00,00,80,00,00,
0,00000284,false,Rx,0,6,0A,0A,00,00,00,00,00,00,
0,00000280,false,Rx,0,8,B3,8A,00,00,33,FA,28,33,
0,00000288,false,Rx,0,8,2C,33,D5,00,00,75,74,53,
0,00000380,false,Rx,0,8,B0,0C,00,96,20,00,00,FE,
0,00000488,false,Rx,0,8,70,33,00,72,FE,FF,00,30,
0,00000280,false,Rx,0,8,B3,8A,00,00,33,FA,28,33,
0,00000288,false,Rx,0,8,64,33,D5,00,00,75,74,53,
0,00000380,false,Rx,0,8,B0,0C,00,96,20,00,00,FE,
0,00000488,false,Rx,0,8,00,33,00,72,FE,FF,00,40,
0,00000480,false,Rx,0,8,84,2C,00,00,19,40,00,F1,
0,00000284,false,Rx,0,6,0B,0B,00,00,00,00,00,00,
545000,00000588,false,Rx,0,8,0B,00,72,00,00,80,00,00,
549000,00000010,false,Rx,0,7,55,DC,A5,D3,53,78,80,00,
0,00000280,false,Rx,0,8,B3,8A,00,00,33,FA,28,33,
0,00000288,false,Rx,0,8,64,33,D5,00,00,75,74,53,
0,00000380,false,Rx,0,8,B0,0C,00,96,20,00,00,FE,
0,00000488,false,Rx,0,8,EF,33,00,72,FE,FF,FF,50,
0,00000280,false,Rx,0,8,B3,8A,00,00,33,FA,28,33,
0,00000288,false,Rx,0,8,64,33,D5,00,00,75,74,53,
0,00000380,false,Rx,0,8,B0,0C,00,96,20,00,00,FE,
0,00000488,false,Rx,0,8,DF,33,00,72,FE,FF,FF,60,
0,00000480,false,Rx,0,8,C2,2C,00,00,19,40,00,B7,
0,00000588,false,Rx,0,8,0B,00,72,00,00,80,00,00,
0,00000284,false,Rx,0,6,0C,0C,00,00,00,00,00,00,
0,00000280,false,Rx,0,8,B3,8A,00,00,33,FA,28,33,
0,00000288,false,Rx,0,8,64,33,D5,00,00,75,74,53,
0,00000380,false,Rx,0,8,B0,0C,00,96,20,00,00,FE,
0,00000488,false,Rx,0,8,CF,33,00,72,FE,FF,FF,70,
0,00000280,false,Rx,0,8,B3,8A,00,00,33,FA,28,33,
0,00000288,false,Rx,0,8,8A,33,D5,00,00,75,74,53,
0,00000380,false,Rx,0,8,B0,0C,00,96,20,00,00,FE,
0,00000488,false,Rx,0,8,3F,33,00,72,FE,FF,FF,80,
0,00000480,false,Rx,0,8,C2,2C,00,00,19,40,00,B7,
0,00000284,false,Rx,0,6,0D,0D,00,00,00,00,00,00,
0,00000588,false,Rx,0,8,0B,00,72,00,00,80,00,00,
0,00000280,false,Rx,0,8,B3,8A,00,00,33,FA,28,33,
0,00000288,false,Rx,0,8,8A,33,D5,00,00,75,74,53,
0,00000380,false,Rx,0,8,B0,0C,00,96,20,00,00,FE,
0,00000488,false,Rx,0,8,2F,33,00,72,FE,FF,FF,90,
0,00000280,false,Rx,0,8,B3,8A,00,00,33,FA,28,33,
0,00000288,false,Rx,0,8,8A,33,D5,00,00,75,74,53,
0,00000380,false,Rx,0,8,B0,12,00,96,20,00,00,FE,
0,00000488,false,Rx,0,8,1F,33,00,72,FE,FF,FF,A0,
0,00000480,false,Rx,0,8,C2,2C,00,00,19,40,00,B7,
606000,00000588,false,Rx,0,8,0B,00,72,00,00,80,00,00,
0,00000284,false,Rx,0,6,0E,0E,00,00,00,00,00,00,
0,00000010,false,Rx,0,7,57,DE,A7,D5,5B,F5,80,00,
0,00000280,false,Rx,0,8,B3,8A,00,00,33,FA,28,33,
0,00000288,false,Rx,0,8,8A,33,D5,00,00,75,74,53,
0,00000380,false,Rx,0,8,B0,12,00,96,20,00,00,FE,
0,00000488,false,Rx,0,8,0F,33,00,72,FE,FF,FF,B0,
0,00000280,false,Rx,0,8,B3,8A,00,00,33,FA,28,33,
0,00000288,false,Rx,0,8,E8,33,D5,00,00,75,74,53,
0,00000380,false,Rx,0,8,B0,12,00,96,20,00,00,FE,
0,00000488,false,Rx,0,8,7F,33,00,72,FE,FF,FF,C0,
0,00000480,false,Rx,0,8,C2,2C,00,00,19,40,00,B7,
0,00000284,false,Rx,0,6,0F,0F,00,00,00,00,00,00,
0,00000588,false,Rx,0,8,0B,00,72,00,00,80,00,00,
0,00000280,false,Rx,0,8,B3,8A,00,00,33,FA,28,33,
0,00000288,false,Rx,0,8,E8,33,D5,00,00,75,74,53,
0,00000380,false,Rx,0,8,B0,12,00,96,20,00,00,FE,
0,00000488,false,Rx,0,8,6F,33,00,72,FE,FF,FF,D0,
0,00000280,false,Rx,0,8,B3,8A,00,00,33,FA,28,33,
0,00000288,false,Rx,0,8,E8,33,D5,00,00,75,74,53,
0,00000380,false,Rx,0,8,B0,12,00,96,20,00,00,FE,
0,00000488,false,Rx,0,8,5F,33,00,72,FE,FF,FF,E0,
0,00000480,false,Rx,0,8,1C,2C,00,00,19,40,00,69,
0,00000588,false,Rx,0,8,0B,00,72,00,00,80,00,00,
647000,00000284,false,Rx,0,6,00,00,00,00,00,00,00,00,
0,00000280,false,Rx,0,8,B3,8A,00,00,33,FA,28,33,
0,00000288,false,Rx,0,8,E8,33,D5,00,00,75,74,53,
0,00000380,false,Rx,0,8,B0,12,00,96,20,00,00,FE,
655000,00000488,false,Rx,0,8,4F,33,00,72,FE,FF,FF,F0,
0,00000280,false,Rx,0,8,B3,8A,00,00,33,FA,28,33,
0,00000288,false,Rx,0,8,2C,33,D5,00,00,75,74,53,
0,00000380,false,Rx,0,8,B0,12,00,96,20,00,00,FE,
0,00000488,false,Rx,0,8,40,33,00,72,FE,FF,00,00,
0,00000480,false,Rx,0,8,1C,2C,00,00,19,40,00,69,
0,00000284,false,Rx,0,6,01,01,00,00,00,00,00,00,
0,00000588,false,Rx,0,8,0B,00,72,00,00,80,00,00,
0,00000010,false,Rx,0,7,55,DC,A5,D3,53,78,80,00,
0,00000280,false,Rx,0,8,B3,8A,00,00,33,FA,28,33,
0,00000288,false,Rx,0,8,2C,33,D5,00,00,75,74,53,
0,00000380,false,Rx,0,8,B0,12,00,96,20,00,00,FE,
676000,00000488,false,Rx,0,8,AF,33,00,72,FE,FF,FF,10,
0,00000280,false,Rx,0,8,B3,8A,00,00,33,FA,28,33,
0,00000288,false,Rx,0,8,2C,33,D5,00,00,75,74,53,
0,00000380,false,Rx,0,8,B0,12,00,96,20,00,00,FE,
0,00000488,false,Rx,0,8,60,33,00,72,FE,FF,00,20,
0,00000480,false,Rx,0,8,1C,2C,00,00,19,40,00,69,
0,00000588,false,Rx,0,8,0B,00,72,00,00,80,00,00,
0,00000284,false,Rx,0,6,02,02,00,00,00,00,00,00,
0,00000280,false,Rx,0,8,B3,8A,00,00,33,FA,28,33,
0,00000288,false,Rx,0,8,2C,33,D5,00,00,75,74,53,
0,00000380,false,Rx,0,8,B0,12,00,96,20,00,00,FE,
0,00000488,false,Rx,0,8,70,33,00,72,FE,FF,00,30,
0,00000280,false,Rx,0,8,B3,8A,00,00,33,FA,28,33,
0,00000288,false,Rx,0,8,64,33,D5,00,00,75,74,53,
0,00000380,false,Rx,0,8,B0,17,00,96,20,00,00,FE,
0,00000488,false,Rx,0,8,00,33,00,72,FE,FF,00,40,
0,00000480,false,Rx,0,8,1C,2C,00,00,19,40,00,69,
0,00000284,false,Rx,0,6,03,03,00,00,00,00,00,00,
0,00000588,false,Rx,0,8,0B,00,72,00,00,80,00,00,
0,00000280,false,Rx,0,8,B3,8A,00,00,33,FA,28,33,
0,00000288,false,Rx,0,8,64,33,D5,00,00,75,74,53,
0,00000380,false,Rx,0,8,B0,17,00,96,20,00,00,FE,
0,00000488,false,Rx,0,8,EF,33,00,72,FE,FF,FF,50,
0,00000280,false,Rx,0,8,B3,8A,00,00,33,FA,28,33,
0,00000288,false,Rx,0,8,64,33,D5,00,00,75,74,53,
0,00000380,false,Rx,0,8,B0,17,00,96,20,00,00,FE,
0,00000488,false,Rx,0,8,DF,33,00,72,FE,FF,FF,60,
0,00000480,false,Rx,0,8,54,2C,00,00,19,40,00,21,
0,00000588,false,Rx,0,8,0B,00,72,00,00,80,00,00,
725000,00000284,false,Rx,0,6,04,04,00,00,00,00,00,00,
729000,00000010,false,Rx,0,7,57,DE,A7,D5,5B,F5,80,00,
0,00000280,false,Rx,0,8,B3,8A,00,00,33,FA,28,33,
0,00000288,false,Rx,0,8,64,33,D5,00,00,75,73,53,
0,00000380,false,Rx,0,8,B0,17,00,96,20,00,00,FE,
0,00000488,false,Rx,0,8,CF,33,00,72,FE,FF,FF,70,
0,00000280,false,Rx,0,8,B3,8A,00,00,33,FA,28,33,
0,00000288,false,Rx,0,8,8A,33,D5,00,00,75,73,53,
0,00000380,false,Rx,0,8,B0,17,00,96,20,00,00,FE,
0,00000488,false,Rx,0,8,3F,33,00,72,FE,FF,FF,80,
0,00000480,false,Rx,0,8,54,2C,00,00,19,40,00,21,
0,00000284,false,Rx,0,6,05,05,00,00,00,00,00,00,
0,00000588,false,Rx,0,8,0B,00,72,00,00,80,00,00,
0,00000280,false,Rx,0,8,B3,8A,00,00,33,FA,28,33,
0,00000288,false,Rx,0,8,8A,33,D5,00,00,75,73,53,
0,00000380,false,Rx,0,8,B0,17,00,96,20,00,00,FE,
0,00000488,false,Rx,0,8,2F,33,00,72,FE,FF,FF,90,
0,00000280,false,Rx,0,8,B3,8A,00,00,33,FA,28,33,
0,00000288,false,Rx,0,8,8A,33,D5,00,00,75,73,53,
0,00000380,false,Rx,0,8,B0,17,00,96,20,00,00,FE,
0,00000488,false,Rx,0,8,1F,33,00,72,FE,FF,FF,A0,
0,00000480,false,Rx,0,8,54,2C,00,00,19,40,00,21,
0,00000284,false,Rx,0,6,06,06,00,00,00,00,00,00,
0,00000588,false,Rx,0,8,0B,00,72,00,00,80,00,00,
0,00000280,false,Rx,0,8,B3,8A,00,00,33,FA,28,33,
0,00000288,false,Rx,0,8,8A,33,D5,00,00,75,73,53,
0,00000380,false,Rx,0,8,B0,17,00,96,20,00,00,FE,
0,00000488,false,Rx,0,8,0F,33,00,72,FE,FF,FF,B0,
0,00000280,false,Rx,0,8,B3,8A,00,00,33,FA,28,33,
0,00000288,false,Rx,0,8,E8,33,D5,00,00,75,73,53,
0,00000380,false,Rx,0,8,B0,17,00,96,20,00,00,FE,
0,00000488,false,Rx,0,8,7F,33,00,72,FE,FF,FF,C0,
0,00000480,false,Rx,0,8,54,2C,00,00,19,40,00,21,
0,00000284,false,Rx,0,6,07,07,00,00,00,00,00,00,
0,00000588,false,Rx,0,8,0B,00,72,00,00,80,00,00,
790000,00000280,false,Rx,0,8,B3,8A,00,00,33,FA,28,33,
0,00000288,false,Rx,0,8,E8,33,D5,00,00,75,73,53,
0,00000380,false,Rx,0,8,B0,17,00,96,20,00,00,FE,
0,00000488,false,Rx,0,8,6F,33,00,72,FE,FF,FF,D0,
0,00000280,false,Rx,0,8,B3,8A,00,00,33,FA,28,33,
0,00000288,false,Rx,0,8,E8,33,D5,00,00,75,73,53,
0,00000380,false,Rx,0,8,B0,1C,00,96,20,00,00,FE,
0,00000488,false,Rx,0,8,5F,33,00,72,FE,FF,FF,E0,
0,00000480,false,Rx,0,8,84,2C,00,00,19,40,00,F1,
0,00000284,false,Rx,0,6,08,08,00,00,00,00,00,00,
0,00000588,false,Rx,0,8,0B,00,72,00,00,80,00,00,
0,00000280,false,Rx,0,8,B3,8A,00,00,33,FA,28,33,
0,00000288,false,Rx,0,8,E8,33,D5,00,00,75,73,53,
0,00000380,false,Rx,0,8,B0,1C,00,96,20,00,00,FE,
0,00000488,false,Rx,0,8,4F,33,00,72,FE,FF,FF,F0,
0,00000280,false,Rx,0,8,B3,8A,00,00,33,FA,28,33,
0,00000288,false,Rx,0,8,2C,33,D5,00,00,75,73,53,
0,00000380,false,Rx,0,8,B0,1C,00,96,20,00,00,FE,
0,00000488,false,Rx,0,8,40,33,00,72,FE,FF,00,00,
0,00000480,false,Rx,0,8,84,2C,00,00,19,40,00,F1,
0,00000284,false,Rx,0,6,09,09,00,00,00,00,00,00,
827000,00000588,false,Rx,0,8,0B,00,72,00,00,80,00,00,
0,00000280,false,Rx,0,8,B3,8A,00,00,33,FA,28,33,
0,00000288,false,Rx,0,8,2C,33,D5,00,00,75,73,53,
0,00000380,false,Rx,0,8,B0,1C,00,96,20,00,00,FE,
0,00000488,false,Rx,0,8,AF,33,00,72,FE,FF,FF,10,
0,00000280,false,Rx,0,8,B3,8A,00,00,33,FA,28,33,
0,00000288,false,Rx,0,8,2C,33,D5,00,00,75,73,53,
0,00000380,false,Rx,0,8,B0,1C,00,96,20,00,00,FE,
0,00000488,false,Rx,0,8,60,33,00,72,FE,FF,00,20,
0,00000480,false,Rx,0,8,84,2C,00,00,19,40,00,F1,
0,00000284,false,Rx,0,6,0A,0A,00,00,00,00,00,00,
848000,00000588,false,Rx,0,8,0B,00,72,00,00,80,00,00,
0,00000280,false,Rx,0,8,B3,8A,00,00,33,FA,28,33,
0,00000288,false,Rx,0,8,2C,33,D5,00,00,75,73,53,
0,00000380,false,Rx,0,8,B0,1C,00,96,20,00,00,FE,
856000,00000488,false,Rx,0,8,70,33,00,72,FE,FF,00,30,
0,00000280,false,Rx,0,8,B3,8A,00,00,33,FA,28,33,
0,00000288,false,Rx,0,8,64,33,D5,00,00,75,73,53,
0,00000380,false,Rx,0,8,B0,1C,00,96,20,00,00,FE,
0,00000488,false,Rx,0,8,00,33,00,72,FE,FF,00,40,
0,00000480,false,Rx,0,8,84,2C,00,00,19,40,00,F1,
0,00000284,false,Rx,0,6,0B,0B,00,00,00,00,00,00,
868000,00000588,false,Rx,0,8,0B,00,72,00,00,80,00,00,
0,00000280,false,Rx,0,8,B3,8A,00,00,33,FA,28,33,
0,00000288,false,Rx,0,8,64,33,D5,00,00,75,73,53,
0,00000380,false,Rx,0,8,B0,1C,00,96,20,00,00,FE,
0,00000488,false,Rx,0,8,EF,33,00,72,FE,FF,FF,50,
0,00000280,false,Rx,0,8,B3,8A,00,00,33,FA,28,33,
0,00000288,false,Rx,0,8,64,33,D5,00,00,75,73,53,
0,00000380,false,Rx,0,8,B0,1C,00,96,20,00,00,FE,
0,00000488,false,Rx,0,8,DF,33,00,72,FE,FF,FF,60,
0,00000480,false,Rx,0,8,C2,2C,00,00,19,40,00,B7,
0,00000284,false,Rx,0,6,0C,0C,00,00,00,00,00,00,
0,00000588,false,Rx,0,8,0B,00,72,00,00,80,00,00,
0,00000280,false,Rx,0,8,B3,8A,00,00,33,FA,28,33,
0,00000288,false,Rx,0,8,64,33,D5,00,00,75,73,53,
0,00000380,false,Rx,0,8,B0,1C,00,96,20,00,00,FE,
0,00000488,false,Rx,0,8,CF,33,00,72,FE,FF,FF,70,
0,00000280,false,Rx,0,8,B3,8A,00,00,33,FA,28,33,
0,00000288,false,Rx,0,8,8A,33,D5,00,00,75,73,53,
0,00000380,false,Rx,0,8,B0,21,00,96,20,00,00,FE,
0,00000488,false,Rx,0,8,3F,33,00,72,FE,FF,FF,80,
0,00000480,false,Rx,0,8,C2,2C,00,00,19,40,00,B7,
0,00000284,false,Rx,0,6,0D,0D,00,00,00,00,00,00,
905000,00000588,false,Rx,0,8,0B,00,72,00,00,80,00,00,
0,00000280,false,Rx,0,8,B3,8A,00,00,33,FA,28,33,
0,00000288,false,Rx,0,8,8A,33,D5,00,00,75,73,53,
0,00000380,false,Rx,0,8,B0,21,00,96,20,00,00,FE,
0,00000488,false,Rx,0,8,2F,33,00,72,FE,FF,FF,90,
0,00000280,false,Rx,0,8,B3,8A,00,00,33,FA,28,33,
0,00000288,false,Rx,0,8,8A,33,D5,00,00,75,73,53,
0,00000380,false,Rx,0,8,B0,21,00,96,20,00,00,FE,
0,00000488,false,Rx,0,8,1F,33,00,72,FE,FF,FF,A0,
0,00000480,false,Rx,0,8,C2,2C,00,00,19,40,00,B7,
0,00000284,false,Rx,0,6,0E,0E,00,00,00,00,00,00,
0,00000588,false,Rx,0,8,0B,00,72,00,00,80,00,00,
0,00000280,false,Rx,0,8,B3,8A,00,00,33,FA,28,33,
0,00000288,false,Rx,0,8,8A,33,D5,00,00,75,72,53,
0,00000380,false,Rx,0,8,B0,21,00,96,20,00,00,FE,
0,00000488,false,Rx,0,8,0F,33,00,72,FE,FF,FF,B0,
0,00000280,false,Rx,0,8,B3,8A,00,00,33,FA,28,33,
0,00000288,false,Rx,0,8,E8,33,D5,00,00,75,72,53,
0,00000380,false,Rx,0,8,B0,21,00,96,20,00,00,FE,
0,00000488,false,Rx,0,8,7F,33,00,72,FE,FF,FF,C0,
0,00000480,false,Rx,0,8,C2,2C,00,00,19,40,00,B7,
0,00000284,false,Rx,0,6,0F,0F,00,00,00,00,00,00,
0,00000588,false,Rx,0,8,0B,00,72,00,00,80,00,00,
0,00000280,false,Rx,0,8,B3,8A,00,00,33,FA,28,33,
0,00000288,false,Rx,0,8,E8,33,D5,00,00,75,72,53,
0,00000380,false,Rx,0,8,B0,21,00,96,20,00,00,FE,
0,00000488,false,Rx,0,8,6F,33,00,72,FE,FF,FF,D0,
0,00000280,false,Rx,0,8,B3,8A,00,00,33,FA,28,33,
0,00000288,false,Rx,0,8,E8,33,D5,00,00,75,72,53,
0,00000380,false,Rx,0,8,B0,21,00,96,20,00,00,FE,
0,00000488,false,Rx,0,8,5F,33,00,72,FE,FF,FF,E0,
0,00000480,false,Rx,0,8,1C,2C,00,00,19,40,00,69,
0,00000284,false,Rx,0,6,00,00,00,00,00,00,00,00,
0,00000588,false,Rx,0,8,0B,00,72,00,00,80,00,00,
0,00000280,false,Rx,0,8,B3,8A,00,00,33,FA,28,33,
0,00000288,false,Rx,0,8,E8,33,D5,00,00,75,72,53,
0,00000380,false,Rx,0,8,B0,21,00,96,20,00,00,FE,
0,00000488,false,Rx,0,8,4F,33,00,72,FE,FF,FF,F0,
0,00000280,false,Rx,0,8,B3,8A,00,00,33,FA,28,33,
0,00000288,false,Rx,0,8,2C,33,D5,00,00,75,72,53,
0,00000380,false,Rx,0,8,B0,21,00,96,20,00,00,FE,
0,00000488,false,Rx,0,8,40,33,00,72,FE,FF,00,00,
0,00000480,false,Rx,0,8,1C,2C,00,00,19,40,00,69,
0,00000284,false,Rx,0,6,01,01,00,00,00,00,00,00,
0,00000588,false,Rx,0,8,0B,00,72,00,00,80,00,00,
0,00000280,false,Rx,0,8,B3,8A,00,00,33,FA,28,33,
0,00000288,false,Rx,0,8,2C,33,D5,00,00,75,72,53,
0,00000380,false,Rx,0,8,B0,21,00,96,20,00,00,FE,
0,00000488,false,Rx,0,8,AF,33,00,72,FE,FF,FF,10,
0,00000280,false,Rx,0,8,B3,8A,00,00,33,FA,28,33,
0,00000288,false,Rx,0,8,2C,33,D5,00,00,75,72,53,
0,00000380,false,Rx,0,8,B0,26,00,96,20,00,00,FE,
0,00000488,false,Rx,0,8,60,33,00,72,FE,FF,00,20,
0,00000480,false,Rx,0,8,1C,2C,00,00,19,40,00,69,
0,00000284,false,Rx,0,6,02,02,00,00,00,00,00,00,
0,00000588,false,Rx,0,8,0B,00,72,00,00,80,00,00,
0,00000280,false,Rx,0,8,B3,8A,00,00,33,FA,28,33,
0,00000288,false,Rx,0,8,2C,33,D5,00,00,75,72,53,
0,00000380,false,Rx,0,8,B0,26,00,96,20,00,00,FE,
0,00000488,false,Rx,0,8,70,33,00,72,FE,FF,00,30,
0,00000280,false,Rx,0,8,B3,8A,00,00,33,FA,28,33,
0,00000288,false,Rx,0,8,64,33,D5,00,00,75,72,53,
0,00000380,false,Rx,0,8,B0,26,00,96,20,00,00,FE,
0,00000488,false,Rx,0,8,00,33,00,72,FE,FF,00,40,
0,00000480,false,Rx,0,8,1C,2C,00,00,19,40,00,69,
0,00000284,false,Rx,0,6,03,03,00,00,00,00,00,00,
28000,00000588,false,Rx,0,8,0B,00,72,00,00,80,00,00,
0,00000280,false,Rx,0,8,B3,8A,00,00,33,FA,28,33,
0,00000288,false,Rx,0,8,64,33,D5,00,00,75,71,53,
0,00000380,false,Rx,0,8,B0,26,00,96,20,00,00,FE,
36000,00000488,false,Rx,0,8,EF,33,00,72,FE,FF,FF,50,
0,00000280,false,Rx,0,8,B3,8A,00,00,33,FA,28,33,
0,00000288,false,Rx,0,8,64,33,D5,00,00,75,71,53,
0,00000380,false,Rx,0,8,B0,26,00,96,20,00,00,FE,
0,00000488,false,Rx,0,8,DF,33,00,72,FE,FF,FF,60,
0,00000480,false,Rx,0,8,54,2C,00,00,19,40,00,21,
0,00000284,false,Rx,0,6,04,04,00,00,00,00,00,00,
49000,00000588,false,Rx,0,8,0B,00,72,00,00,80,00,00,
0,00000280,false,Rx,0,8,B3,8A,00,00,33,FA,28,33,
0,00000288,false,Rx,0,8,64,33,D5,00,00,75,71,53,
0,00000380,false,Rx,0,8,B0,26,00,96,20,00,00,FE,
0,00000488,false,Rx,0,8,CF,33,00,72,FE,FF,FF,70,
0,00000280,false,Rx,0,8,B3,8A,00,00,33,FA,28,33,
0,00000288,false,Rx,0,8,8A,33,D5,00,00,75,71,53,
0,00000380,false,Rx,0,8,B0,26,00,96,20,00,00,FE,
0,00000488,false,Rx,0,8,3F,33,00,72,FE,FF,FF,80,
0,00000480,false,Rx,0,8,54,2C,00,00,19,40,00,21,
0,00000284,false,Rx,0,6,05,05,00,00,00,00,00,00,
69000,00000588,false,Rx,0,8,0B,00,72,00,00,80,00,00,
0,00000280,false,Rx,0,8,B3,8A,00,00,33,FA,28,33,
0,00000288,false,Rx,0,8,8A,33,D5,00,00,75,71,53,
0,00000380,false,Rx,0,8,B0,26,00,96,20,00,00,FE,
0,00000488,false,Rx,0,8,2F,33,00,72,FE,FF,FF,90,
0,00000280,false,Rx,0,8,B3,8A,00,00,33,FA,28,33,
0,00000288,false,Rx,0,8,8A,33,D5,00,00,75,71,53,
0,00000380,false,Rx,0,8,B0,26,00,96,20,00,00,FE,
0,00000488,false,Rx,0,8,1F,33,00,72,FE,FF,FF,A0,
0,00000480,false,Rx,0,8,54,2C,00,00,19,40,00,21,
0,00000284,false,Rx,0,6,06,06,00,00,00,00,00,00,
0,00000588,false,Rx,0,8,0B,00,72,00,00,80,00,00,
0,00000280,false,Rx,0,8,B3,8A,00,00,33,FA,28,33,
0,00000288,false,Rx,0,8,8A,33,D5,00,00,75,71,53,
0,00000380,false,Rx,0,8,B0,26,00,96,20,00,00,FE,
0,00000488,false,Rx,0,8,0F,33,00,72,FE,FF,FF,B0,
0,00000280,false,Rx,0,8,B3,8A,00,00,33,FA,28,33,
0,00000288,false,Rx,0,8,E8,33,D5,00,00,75,71,53,
0,00000380,false,Rx,0,8,B0,2B,00,96,20,00,00,FE,
0,00000488,false,Rx,0,8,7F,33,00,72,FE,FF,FF,C0,
0,00000480,false,Rx,0,8,54,2C,00,00,19,40,00,21,
0,00000284,false,Rx,0,6,07,07,00,00,00,00,00,00,
106000,00000588,false,Rx,0,8,0B,00,72,00,00,80,00,00,
0,00000280,false,Rx,0,8,B3,8A,00,00,33,FA,28,33,
0,00000288,false,Rx,0,8,E8,33,D5,00,00,75,71,53,
0,00000380,false,Rx,0,8,B0,2B,00,96,20,00,00,FE,
0,00000488,false,Rx,0,8,6F,33,00,72,FE,FF,FF,D0,
0,00000280,false,Rx,0,8,B3,8A,00,00,33,FA,28,33,
0,00000288,false,Rx,0,8,E8,33,D5,00,00,75,71,53,
0,00000380,false,Rx,0,8,B0,2B,00,96,20,00,00,FE,
0,00000488,false,Rx,0,8,5F,33,00,72,FE,FF,FF,E0,
0,00000480,false,Rx,0,8,84,2C,00,00,19,40,00,F1,
0,00000284,false,Rx,0,6,08,08,00,00,00,00,00,00,
0,00000588,false,Rx,0,8,0B,00,72,00,00,80,00,00,
0,00000280,false,Rx,0,8,B3,8A,00,00,33,FA,28,33,
0,00000288,false,Rx,0,8,E8,33,D5,00,00,75,70,53,
0,00000380,false,Rx,0,8,B0,2B,00,96,20,00,00,FE,
0,00000488,false,Rx,0,8,4F,33,00,72,FE,FF,FF,F0,
0,00000280,false,Rx,0,8,B3,8A,00,00,33,FA,28,33,
0,00000288,false,Rx,0,8,2C,33,D5,00,00,75,70,53,
0,00000380,false,Rx,0,8,B0,2B,00,96,20,00,00,FE,
0,00000488,false,Rx,0,8,40,33,00,72,FE,FF,00,00,
0,00000480,false,Rx,0,8,84,2C,00,00,19,40,00,F1,
0,00000284,false,Rx,0,6,09,09,00,00,00,00,00,00,
0,00000588,false,Rx,0,8,0B,00,72,00,00,80,00,00,
0,00000280,false,Rx,0,8,B3,8A,00,00,33,FA,28,33,
0,00000288,false,Rx,0,8,2C,33,D5,00,00,75,70,53,
0,00000380,false,Rx,0,8,B0,2B,00,96,20,00,00,FE,
0,00000488,false,Rx,0,8,AF,33,00,72,FE,FF,FF,10,
0,00000280,false,Rx,0,8,B3,8A,00,00,33,FA,28,33,
0,00000288,false,Rx,0,8,2C,33,D5,00,00,75,70,53,
0,00000380,false,Rx,0,8,B0,2B,00,96,20,00,00,FE,
0,00000488,false,Rx,0,8,60,33,00,72,FE,FF,00,20,
0,00000480,false,Rx,0,8,84,2C,00,00,19,40,00,F1,
0,00000284,false,Rx,0,6,0A,0A,00,00,00,00,00,00,
0,00000588,false,Rx,0,8,0B,00,72,00,00,80,00,00,
0,00000280,false,Rx,0,8,B3,8A,00,00,33,FA,28,33,
0,00000288,false,Rx,0,8,2C,33,D5,00,00,75,70,53,
0,00000380,false,Rx,0,8,B0,2B,00,96,20,00,00,FE,
0,00000488,false,Rx,0,8,70,33,00,72,FE,FF,00,30,
0,00000280,false,Rx,0,8,B3,8A,00,00,33,FA,28,33,
0,00000288,false,Rx,0,8,64,33,D5,00,00,75,70,53,
0,00000380,false,Rx,0,8,B0,2B,00,96,20,00,00,FE,
0,00000488,false,Rx,0,8,00,33,00,72,FE,FF,00,40,
0,00000480,false,Rx,0,8,84,2C,00,00,19,40,00,F1,
0,00000284,false,Rx,0,6,0B,0B,00,00,00,00,00,00,
0,00000588,false,Rx,0,8,0B,00,72,00,00,80,00,00,
0,00000280,false,Rx,0,8,B3,8A,00,00,33,FA,28,33,
0,00000288,false,Rx,0,8,64,33,D5,00,00,75,70,53,
0,00000380,false,Rx,0,8,B0,2B,00,96,20,00,00,FE,
0,00000488,false,Rx,0,8,EF,33,00,72,FE,FF,FF,50,
0,00000280,false,Rx,0,8,B3,8A,00,00,33,FA,28,33,
0,00000288,false,Rx,0,8,64,33,D5,00,00,75,70,53,
0,00000380,false,Rx,0,8,B0,2F,00,96,20,00,00,FE,
0,00000488,false,Rx,0,8,DF,33,00,72,FE,FF,FF,60,
0,00000480,false,Rx,0,8,C2,2C,00,00,19,40,00,B7,
0,00000284,false,Rx,0,6,0C,0C,00,00,00,00,00,00,
208000,00000588,false,Rx,0,8,0B,00,72,00,00,80,00,00,
0,00000280,false,Rx,0,8,B3,8A,00,00,33,FA,28,33,
0,00000288,false,Rx,0,8,64,33,D5,00,00,75,70,53,
0,00000380,false,Rx,0,8,B0,2F,00,96,20,00,00,FE,
0,00000488,false,Rx,0,8,CF,33,00,72,FE,FF,FF,70,
0,00000280,false,Rx,0,8,B3,8A,00,00,33,FA,28,33,
0,00000288,false,Rx,0,8,8A,33,D5,00,00,75,70,53,
0,00000380,false,Rx,0,8,B0,2F,00,96,20,00,00,FE,
0,00000488,false,Rx,0,8,3F,33,00,72,FE,FF,FF,80,
0,00000480,false,Rx,0,8,C2,2C,00,00,19,40,00,B7,
0,00000284,false,Rx,0,6,0D,0D,00,00,00,00,00,00,
229000,00000588,false,Rx,0,8,0B,00,72,00,00,80,00,00,
0,00000280,false,Rx,0,8,B3,8A,00,00,33,FA,28,33,
0,00000288,false,Rx,0,8,8A,33,D5,00,00,75,70,53,
0,00000380,false,Rx,0,8,B0,2F,00,96,20,00,00,FE,
237000,00000488,false,Rx,0,8,2F,33,00,72,FE,FF,FF,90,
0,00000280,false,Rx,0,8,B3,8A,00,00,33,FA,28,33,
0,00000288,false,Rx,0,8,8A,33,D5,00,00,75,70,53,
0,00000380,false,Rx,0,8,B0,2F,00,96,20,00,00,FE,
0,00000488,false,Rx,0,8,1F,33,00,72,FE,FF,FF,A0,
0,00000480,false,Rx,0,8,C2,2C,00,00,19,40,00,B7,
0,00000284,false,Rx,0,6,0E,0E,00,00,00,00,00,00,
249000,00000588,false,Rx,0,8,0B,00,72,00,00,80,00,00,
0,00000280,false,Rx,0,8,B3,8A,00,00,33,FA,28,33,
0,00000288,false,Rx,0,8,8A,33,D5,00,00,75,70,53,
0,00000380,false,Rx,0,8,B0,2F,00,96,20,00,00,FE,
0,00000488,false,Rx,0,8,0F,33,00,72,FE,FF,FF,B0,
262000,00000280,false,Rx,0,8,B3,8A,00,00,33,FA,28,33,
0,00000288,false,Rx,0,8,E8,33,D5,00,00,75,70,53,
0,00000380,false,Rx,0,8,B0,2F,00,96,20,00,00,FE,
0,00000488,false,Rx,0,8,7F,33,00,72,FE,FF,FF,C0,
0,00000480,false,Rx,0,8,C2,2C,00,00,19,40,00,B7,
0,00000284,false,Rx,0,6,0F,0F,00,00,00,00,00,00,
0,00000588,false,Rx,0,8,0B,00,72,00,00,80,00,00,
0,00000280,false,Rx,0,8,B3,8A,00,00,33,FA,28,33,
0,00000288,false,Rx,0,8,E8,33,D5,00,00,75,70,53,
0,00000380,false,Rx,0,8,B0,2F,00,96,20,00,00,FE,
0,00000488,false,Rx,0,8,6F,33,00,72,FE,FF,FF,D0,
0,00000280,false,Rx,0,8,B3,8A,00,00,33,FA,28,33,
0,00000288,false,Rx,0,8,E8,33,D5,00,00,75,70,53,
0,00000380,false,Rx,0,8,B0,2F,00,96,20,00,00,FE,
0,00000488,false,Rx,0,8,5F,33,00,72,FE,FF,FF,E0,
0,00000480,false,Rx,0,8,1C,2C,00,00,19,40,00,69,
0,00000284,false,Rx,0,6,00,00,00,00,00,00,00,00,
286000,00000588,false,Rx,0,8,0B,00,72,00,00,80,00,00,
0,00000280,false,Rx,0,8,B3,8A,00,00,33,FA,28,33,
0,00000288,false,Rx,0,8,E8,33,D5,00,00,75,70,53,
0,00000380,false,Rx,0,8,B0,2F,00,96,20,00,00,FE,
0,00000488,false,Rx,0,8,4F,33,00,72,FE,FF,FF,F0,
0,00000280,false,Rx,0,8,B3,8A,00,00,33,FA,28,33,
0,00000288,false,Rx,0,8,2C,33,D5,00,00,75,70,53,
0,00000380,false,Rx,0,8,B0,33,00,96,20,00,00,FE,
0,00000488,false,Rx,0,8,40,33,00,72,FE,FF,00,00,
0,00000480,false,Rx,0,8,1C,2C,00,00,19,40,00,69,
0,00000284,false,Rx,0,6,01,01,00,00,00,00,00,00,
0,00000588,false,Rx,0,8,0B,00,72,00,00,80,00,00,
0,00000280,false,Rx,0,8,B3,8A,00,00,33,FA,28,33,
0,00000288,false,Rx,0,8,2C,33,D5,00,00,75,70,53,
0,00000380,false,Rx,0,8,B0,33,00,96,20,00,00,FE,
0,00000488,false,Rx,0,8,AF,33,00,72,FE,FF,FF,10,
0,00000280,false,Rx,0,8,B3,8A,00,00,33,FA,28,33,
0,00000288,false,Rx,0,8,2C,33,D5,00,00,75,70,53,
0,00000380,false,Rx,0,8,B0,33,00,96,20,00,00,FE,
0,00000488,false,Rx,0,8,60,33,00,72,FE,FF,00,20,
0,00000480,false,Rx,0,8,1C,2C,00,00,19,40,00,69,
0,00000284,false,Rx,0,6,02,02,00,00,00,00,00,00,
0,00000588,false,Rx,0,8,0B,00,72,00,00,80,00,00,
0,00000280,false,Rx,0,8,B3,8A,00,00,33,FA,28,33,
0,00000288,false,Rx,0,8,2C,33,D5,00,00,75,6F,53,
0,00000380,false,Rx,0,8,B0,33,00,96,20,00,00,FE,
0,00000488,false,Rx,0,8,70,33,00,72,FE,FF,00,30,
0,00000280,false,Rx,0,8,B3,8A,00,00,33,FA,28,33,
0,00000288,false,Rx,0,8,64,33,D5,00,00,75,6F,53,
0,00000380,false,Rx,0,8,B0,33,00,96,20,00,00,FE,
0,00000488,false,Rx,0,8,00,33,00,72,FE,FF,00,40,
0,00000480,false,Rx,0,8,1C,2C,00,00,19,40,00,69,
0,00000284,false,Rx,0,6,03,03,00,00,00,00,00,00,
0,00000588,false,Rx,0,8,0B,00,72,00,00,80,00,00,
0,00000280,false,Rx,0,8,B3,8A,00,00,33,FA,28,33,
0,00000288,false,Rx,0,8,64,33,D5,00,00,75,6F,53,
0,00000380,false,Rx,0,8,B0,33,00,96,20,00,00,FE,
0,00000488,false,Rx,0,8,EF,33,00,72,FE,FF,FF,50,
0,00000580,false,Rx,0,8,83,00,00,11,1F,E0,0C,46,
0,00000280,false,Rx,0,8,B3,8A,00,00,33,FA,28,33,
0,00000288,false,Rx,0,8,64,33,D5,00,00,75,6F,53,
0,00000380,false,Rx,0,8,B0,33,00,96,20,00,00,FE,
0,00000488,false,Rx,0,8,DF,33,00,72,FE,FF,FF,60,
0,00000480,false,Rx,0,8,54,2C,00,00,19,40,00,21,
0,00000284,false,Rx,0,6,04,04,00,00,00,00,00,00,
0,00000588,false,Rx,0,8,0B,00,72,00,00,80,00,00,
0,00000280,false,Rx,0,8,B3,8A,00,00,33,FA,28,33,
0,00000288,false,Rx,0,8,64,33,D5,00,00,75,6F,53,
0,00000380,false,Rx,0,8,B0,33,00,96,20,00,00,FE,
0,00000488,false,Rx,0,8,CF,33,00,72,FE,FF,FF,70,
0,00000280,false,Rx,0,8,B3,8A,00,00,33,FA,28,33,
0,00000288,false,Rx,0,8,8A,33,D5,00,00,75,6F,53,
0,00000380,false,Rx,0,8,B0,33,00,96,20,00,00,FE,
0,00000488,false,Rx,0,8,3F,33,00,72,FE,FF,FF,80,
0,00000480,false,Rx,0,8,54,2C,00,00,19,40,00,21,
0,00000284,false,Rx,0,6,05,05,00,00,00,00,00,00,
0,00000588,false,Rx,0,8,0B,00,72,00,00,80,00,00,
0,00000280,false,Rx,0,8,B3,8A,00,00,33,FA,28,33,
0,00000288,false,Rx,0,8,8A,33,D5,00,00,75,6F,53,
0,00000380,false,Rx,0,8,B0,33,00,96,20,00,00,FE,
0,00000488,false,Rx,0,8,2F,33,00,72,FE,FF,FF,90,
0,00000280,false,Rx,0,8,B3,8A,00,00,33,FA,28,33,
0,00000288,false,Rx,0,8,8A,33,D5,00,00,75,6F,53,
0,00000380,false,Rx,0,8,B0,37,00,96,20,00,00,FE,
0,00000488,false,Rx,0,8,1F,33,00,72,FE,FF,FF,A0,
0,00000480,false,Rx,0,8,54,2C,00,00,19,40,00,21,
0,00000284,false,Rx,0,6,06,06,00,00,00,00,00,00,
409000,00000588,false,Rx,0,8,0B,00,72,00,00,80,00,00,
0,00000280,false,Rx,0,8,B3,8A,00,00,33,FA,28,33,
0,00000288,false,Rx,0,8,8A,33,D5,00,00,75,6F,53,
0,00000380,false,Rx,0,8,B0,37,00,96,20,00,00,FE,
417000,00000488,false,Rx,0,8,0F,33,00,72,FE,FF,FF,B0,
0,00000280,false,Rx,0,8,B3,8A,00,00,33,FA,28,33,
0,00000288,false,Rx,0,8,E8,33,D5,00,00,75,6F,53,
0,00000380,false,Rx,0,8,B0,37,00,96,20,00,00,FE,
0,00000488,false,Rx,0,8,7F,33,00,72,FE,FF,FF,C0,
0,00000480,false,Rx,0,8,54,2C,00,00,19,40,00,21,
0,00000284,false,Rx,0,6,07,07,00,00,00,00,00,00,
429000,00000588,false,Rx,0,8,0B,00,72,00,00,80,00,00,
0,00000280,false,Rx,0,8,B3,8A,00,00,33,FA,28,33,
0,00000288,false,Rx,0,8,E8,33,D5,00,00,75,6E,53,
0,00000380,false,Rx,0,8,B0,37,00,96,20,00,00,FE,
0,00000488,false,Rx,0,8,6F,33,00,72,FE,FF,FF,D0,
0,00000280,false,Rx,0,8,B3,8A,00,00,33,FA,28,33,
0,00000288,false,Rx,0,8,E8,33,D5,00,00,75,6E,53,
0,00000380,false,Rx,0,8,B0,37,00,96,20,00,00,FE,
0,00000488,false,Rx,0,8,5F,33,00,72,FE,FF,FF,E0,
0,00000480,false,Rx,0,8,84,2C,00,00,19,40,00,F1,
0,00000284,false,Rx,0,6,08,08,00,00,00,00,00,00,
0,00000588,false,Rx,0,8,0B,00,72,00,00,80,00,00,
0,00000280,false,Rx,0,8,B3,8A,00,00,33,FA,28,33,
0,00000288,false,Rx,0,8,E8,33,D5,00,00,75,6E,53,
0,00000380,false,Rx,0,8,B0,37,00,96,20,00,00,FE,
0,00000488,false,Rx,0,8,4F,33,00,72,FE,FF,FF,F0,
0,00000280,false,Rx,0,8,B3,8A,00,00,33,FA,28,33,
0,00000288,false,Rx,0,8,2C,33,D5,00,00,75,6E,53,
0,00000380,false,Rx,0,8,B0,37,00,96,20,00,00,FE,
0,00000488,false,Rx,0,8,40,33,00,72,FE,FF,00,00,
0,00000480,false,Rx,0,8,84,2C,00,00,19,40,00,F1,
0,00000284,false,Rx,0,6,09,09,00,00,00,00,00,00,
466000,00000588,false,Rx,0,8,0B,00,72,00,00,80,00,00,
0,00000280,false,Rx,0,8,B3,8A,00,00,33,FA,28,33,
0,00000288,false,Rx,0,8,2C,33,D5,00,00,75,6E,53,
0,00000380,false,Rx,0,8,B0,37,00,96,20,00,00,FE,
0,00000488,false,Rx,0,8,AF,33,00,72,FE,FF,FF,10,
0,00000280,false,Rx,0,8,B3,8A,00,00,33,FA,28,33,
0,00000288,false,Rx,0,8,2C,33,D5,00,00,75,6E,53,
0,00000380,false,Rx,0,8,B0,37,00,96,20,00,00,FE,
0,00000488,false,Rx,0,8,60,33,00,72,FE,FF,00,20,
0,00000480,false,Rx,0,8,84,2C,00,00,19,40,00,F1,
0,00000284,false,Rx,0,6,0A,0A,00,00,00,00,00,00,
487000,00000588,false,Rx,0,8,0B,00,72,00,00,80,00,00,
0,00000280,false,Rx,0,8,B3,8A,00,00,33,FA,28,33,
0,00000288,false,Rx,0,8,2C,33,D5,00,00,75,6E,53,
0,00000380,false,Rx,0,8,B0,37,00,96,20,00,00,FE,
0,00000488,false,Rx,0,8,70,33,00,72,FE,FF,00,30,
0,00000280,false,Rx,0,8,B3,8A,00,00,33,FA,28,33,
0,00000288,false,Rx,0,8,64,33,D5,00,00,75,6E,53,
0,00000380,false,Rx,0,8,B0,3A,00,96,20,00,00,FE,
0,00000488,false,Rx,0,8,00,33,00,72,FE,FF,00,40,
0,00000480,false,Rx,0,8,84,2C,00,00,19,40,00,F1,
0,00000284,false,Rx,0,6,0B,0B,00,00,00,00,00,00,
0,00000588,false,Rx,0,8,0B,00,72,00,00,80,00,00,
0,00000280,false,Rx,0,8,B3,8A,00,00,33,FA,28,33,
0,00000288,false,Rx,0,8,64,33,D5,00,00,75,6E,53,
0,00000380,false,Rx,0,8,B0,3A,00,96,20,00,00,FE,
0,00000488,false,Rx,0,8,EF,33,00,72,FE,FF,FF,50,
0,00000280,false,Rx,0,8,B3,8A,00,00,33,FA,28,33,
0,00000288,false,Rx,0,8,64,33,D5,00,00,75,6E,53,
0,00000380,false,Rx,0,8,B0,3A,00,96,20,00,00,FE,
0,00000488,false,Rx,0,8,DF,33,00,72,FE,FF,FF,60,
0,00000480,false,Rx,0,8,C2,2C,00,00,19,40,00,B7,
0,00000284,false,Rx,0,6,0C,0C,00,00,00,00,00,00,
0,00000588,false,Rx,0,8,0B,00,72,00,00,80,00,00,
0,00000280,false,Rx,0,8,B3,8A,00,00,33,FA,28,33,
0,00000288,false,Rx,0,8,64,33,D5,00,00,75,6D,53,
0,00000380,false,Rx,0,8,B0,3A,00,96,20,00,00,FE,
0,00000488,false,Rx,0,8,CF,33,00,72,FE,FF,FF,70,
0,00000280,false,Rx,0,8,B3,8A,00,00,33,FA,28,33,
0,00000288,false,Rx,0,8,8A,33,D5,00,00,75,6D,53,
0,00000380,false,Rx,0,8,B0,3A,00,96,20,00,00,FE,
0,00000488,false,Rx,0,8,3F,33,00,72,FE,FF,FF,80,
0,00000480,false,Rx,0,8,C2,2C,00,00,19,40,00,B7,
0,00000284,false,Rx,0,6,0D,0D,00,00,00,00,00,00,
0,00000588,false,Rx,0,8,0B,00,72,00,00,80,00,00,
0,00000280,false,Rx,0,8,B3,8A,00,00,33,FA,28,33,
0,00000288,false,Rx,0,8,8A,33,D5,00,00,75,6D,53,
0,00000380,false,Rx,0,8,B0,3A,00,96,20,00,00,FE,
0,00000488,false,Rx,0,8,2F,33,00,72,FE,FF,FF,90,
0,00000280,false,Rx,0,8,B3,8A,00,00,33,FA,28,33,
0,00000288,false,Rx,0,8,8A,33,D5,00,00,75,6D,53,
0,00000380,false,Rx,0,8,B0,3A,00,96,20,00,00,FE,
0,00000488,false,Rx,0,8,1F,33,00,72,FE,FF,FF,A0,
0,00000480,false,Rx,0,8,C2,2C,00,00,19,40,00,B7,
0,00000284,false,Rx,0,6,0E,0E,00,00,00,00,00,00,
0,00000588,false,Rx,0,8,0B,00,72,00,00,80,00,00,
0,00000280,false,Rx,0,8,B3,8A,00,00,33,FA,28,33,
0,00000288,false,Rx,0,8,8A,33,D5,00,00,75,6D,53,
0,00000380,false,Rx,0,8,B0,3A,00,96,20,00,00,FE,
0,00000488,false,Rx,0,8,0F,33,00,72,FE,FF,FF,B0,
0,00000280,false,Rx,0,8,B3,8A,00,00,33,FA,28,33,
0,00000288,false,Rx,0,8,E8,33,D5,00,00,75,6D,53,
0,00000380,false,Rx,0,8,B0,3A,00,96,20,00,00,FE,
0,00000488,false,Rx,0,8,7F,33,00,72,FE,FF,FF,C0,
0,00000480,false,Rx,0,8,C2,2C,00,00,19,40,00,B7,
0,00000284,false,Rx,0,6,0F,0F,00,00,00,00,00,00,
589000,00000588,false,Rx,0,8,0B,00,72,00,00,80,00,00,
0,00000280,false,Rx,0,8,B3,8A,00,00,33,FA,28,33,
0,00000288,false,Rx,0,8,E8,33,D5,00,00,75,6D,53,
0,00000380,false,Rx,0,8,B0,3A,00,96,20,00,00,FE,
597000,00000488,false,Rx,0,8,6F,33,00,72,FE,FF,FF,D0,
0,00000280,false,Rx,0,8,B3,8A,00,00,33,FA,28,33,
0,00000288,false,Rx,0,8,E8,33,D5,00,00,75,6D,53,
0,00000380,false,Rx,0,8,B0,3E,00,96,20,00,00,FE,
0,00000488,false,Rx,0,8,5F,33,00,72,FE,FF,FF,E0,
0,00000480,false,Rx,0,8,1C,2C,00,00,19,40,00,69,
0,00000284,false,Rx,0,6,00,00,00,00,00,00,00,00,
610000,00000588,false,Rx,0,8,0B,00,72,00,00,80,00,00,
0,00000280,false,Rx,0,8,B3,8A,00,00,33,FA,28,33,
0,00000288,false,Rx,0,8,E8,33,D5,00,00,75,6D,53,
0,00000380,false,Rx,0,8,B0,3E,00,96,20,00,00,FE,
618000,00000488,false,Rx,0,8,4F,33,00,72,FE,FF,FF,F0,
0,00000280,false,Rx,0,8,B3,8A,00,00,33,FA,28,33,
0,00000288,false,Rx,0,8,2C,33,D5,00,00,75,6D,53,
0,00000380,false,Rx,0,8,B0,3E,00,96,20,00,00,FE,
0,00000488,false,Rx,0,8,40,33,00,72,FE,FF,00,00,
0,00000480,false,Rx,0,8,1C,2C,00,00,19,40,00,69,
0,00000284,false,Rx,0,6,01,01,00,00,00,00,00,00,
630000,00000588,false,Rx,0,8,0B,00,72,00,00,80,00,00,
0,00000280,false,Rx,0,8,B3,8A,00,00,33,FA,28,33,
0,00000288,false,Rx,0,8,2C,33,D5,00,00,75,6C,53,
0,00000380,false,Rx,0,8,B0,3E,00,96,20,00,00,FE,
0,00000488,false,Rx,0,8,AF,33,00,72,FE,FF,FF,10,
0,00000280,false,Rx,0,8,B3,8A,00,00,33,FA,28,33,
0,00000288,false,Rx,0,8,2C,33,D5,00,00,75,6C,53,
0,00000380,false,Rx,0,8,B0,3E,00,96,20,00,00,FE,
0,00000488,false,Rx,0,8,60,33,00,72,FE,FF,00,20,
0,00000480,false,Rx,0,8,1C,2C,00,00,19,40,00,69,
0,00000284,false,Rx,0,6,02,02,00,00,00,00,00,00,
0,00000588,false,Rx,0,8,0B,00,72,00,00,80,00,00,
0,00000280,false,Rx,0,8,B3,8A,00,00,33,FA,28,33,
0,00000288,false,Rx,0,8,2C,33,D5,00,00,75,6C,53,
0,00000380,false,Rx,0,8,B0,3E,00,96,20,00,00,FE,
0,00000488,false,Rx,0,8,70,33,00,72,FE,FF,00,30,
0,00000280,false,Rx,0,8,B3,8A,00,00,33,FA,28,33,
0,00000288,false,Rx,0,8,64,33,D5,00,00,75,6C,53,
0,00000380,false,Rx,0,8,B0,3E,00,96,20,00,00,FE,
0,00000488,false,Rx,0,8,00,33,00,72,FE,FF,00,40,
0,00000480,false,Rx,0,8,1C,2C,00,00,19,40,00,69,
0,00000284,false,Rx,0,6,03,03,00,00,00,00,00,00,
667000,00000588,false,Rx,0,8,0B,00,72,00,00,80,00,00,
0,00000280,false,Rx,0,8,B3,8A,00,00,33,FA,28,33,
0,00000288,false,Rx,0,8,64,33,D5,00,00,75,6C,53,
0,00000380,false,Rx,0,8,B0,3E,00,96,20,00,00,FE,
0,00000488,false,Rx,0,8,EF,33,00,72,FE,FF,FF,50,
0,00000280,false,Rx,0,8,B3,8A,00,00,33,FA,28,33,
0,00000288,false,Rx,0,8,64,33,D5,00,00,75,6C,53,
0,00000380,false,Rx,0,8,B0,3E,00,96,20,00,00,FE,
0,00000488,false,Rx,0,8,DF,33,00,72,FE,FF,FF,60,
0,00000480,false,Rx,0,8,54,2C,00,00,19,40,00,21,
0,00000284,false,Rx,0,6,04,04,00,00,00,00,00,00,
0,00000588,false,Rx,0,8,0B,00,72,00,00,80,00,00,
0,00000280,false,Rx,0,8,B3,8A,00,00,33,FA,28,33,
0,00000288,false,Rx,0,8,64,33,D5,00,00,75,6C,53,
0,00000380,false,Rx,0,8,B0,3E,00,96,20,00,00,FE,
0,00000488,false,Rx,0,8,CF,33,00,72,FE,FF,FF,70,
0,00000280,false,Rx,0,8,B3,8A,00,00,33,FA,28,33,
0,00000288,false,Rx,0,8,8A,33,D5,00,00,75,6C,53,
0,00000380,false,Rx,0,8,B0,41,00,96,20,00,00,FE,
0,00000488,false,Rx,0,8,3F,33,00,72,FE,FF,FF,80,
0,00000480,false,Rx,0,8,54,2C,00,00,19,40,00,21,
0,00000284,false,Rx,0,6,05,05,00,00,00,00,00,00,
0,00000588,false,Rx,0,8,0B,00,72,00,00,80,00,00,
0,00000280,false,Rx,0,8,B3,8A,00,00,33,FA,28,33,
0,00000288,false,Rx,0,8,8A,33,D5,00,00,75,6C,53,
0,00000380,false,Rx,0,8,B0,41,00,96,20,00,00,FE,
0,00000488,false,Rx,0,8,2F,33,00,72,FE,FF,FF,90,
0,00000280,false,Rx,0,8,B3,8A,00,00,33,FA,28,33,
0,00000288,false,Rx,0,8,8A,33,D5,00,00,75,6C,53,
0,00000380,false,Rx,0,8,B0,41,00,96,20,00,00,FE,
0,00000488,false,Rx,0,8,1F,33,00,72,FE,FF,FF,A0,
0,00000480,false,Rx,0,8,54,2C,00,00,19,40,00,21,
0,00000284,false,Rx,0,6,06,06,00,00,00,00,00,00,
0,00000588,false,Rx,0,8,0B,00,72,00,00,80,00,00,
732000,00000280,false,Rx,0,8,B3,8A,00,00,33,FA,28,33,
0,00000288,false,Rx,0,8,8A,33,D5,00,00,75,6B,53,
0,00000380,false,Rx,0,8,B0,41,00,96,20,00,00,FE,
0,00000488,false,Rx,0,8,0F,33,00,72,FE,FF,FF,B0,
0,00000280,false,Rx,0,8,B3,8A,00,00,33,FA,28,33,
0,00000288,false,Rx,0,8,E8,33,D5,00,00,75,6B,53,
0,00000380,false,Rx,0,8,B0,41,00,96,20,00,00,FE,
0,00000488,false,Rx,0,8,7F,33,00,72,FE,FF,FF,C0,
0,00000480,false,Rx,0,8,54,2C,00,00,19,40,00,21,
0,00000284,false,Rx,0,6,07,07,00,00,00,00,00,00,
0,00000588,false,Rx,0,8,0B,00,72,00,00,80,00,00,
0,00000280,false,Rx,0,8,B3,8A,00,00,33,FA,28,33,
0,00000288,false,Rx,0,8,E8,33,D5,00,00,75,6B,53,
0,00000380,false,Rx,0,8,B0,41,00,96,20,00,00,FE,
0,00000488,false,Rx,0,8,6F,33,00,72,FE,FF,FF,D0,
0,00000280,false,Rx,0,8,B3,8A,00,00,33,FA,28,33,
0,00000288,false,Rx,0,8,E8,33,D5,00,00,75,6B,53,
0,00000380,false,Rx,0,8,B0,41,00,96,20,00,00,FE,
0,00000488,false,Rx,0,8,5F,33,00,72,FE,FF,FF,E0,
0,00000480,false,Rx,0,8,84,2C,00,00,19,40,00,F1,
0,00000284,false,Rx,0,6,08,08,00,00,00,00,00,00,
769000,00000588,false,Rx,0,8,0B,00,72,00,00,80,00,00,
0,00000280,false,Rx,0,8,B3,8A,00,00,33,FA,28,33,
0,00000288,false,Rx,0,8,E8,33,D5,00,00,75,6B,53,
0,00000380,false,Rx,0,8,B0,41,00,96,20,00,00,FE,
0,00000488,false,Rx,0,8,4F,33,00,72,FE,FF,FF,F0,
0,00000280,false,Rx,0,8,B3,8A,00,00,33,FA,28,33,
0,00000288,false,Rx,0,8,2C,33,D5,00,00,75,6B,53,
0,00000380,false,Rx,0,8,B0,41,00,96,20,00,00,FE,
0,00000488,false,Rx,0,8,40,33,00,72,FE,FF,00,00,
0,00000480,false,Rx,0,8,84,2C,00,00,19,40,00,F1,
0,00000284,false,Rx,0,6,09,09,00,00,00,00,00,00,
790000,00000588,false,Rx,0,8,0B,00,72,00,00,80,00,00,
0,00000280,false,Rx,0,8,B3,8A,00,00,33,FA,28,33,
0,00000288,false,Rx,0,8,2C,33,D5,00,00,75,6B,53,
0,00000380,false,Rx,0,8,B0,41,00,96,20,00,00,FE,
798000,00000488,false,Rx,0,8,AF,33,00,72,FE,FF,FF,10,
0,00000280,false,Rx,0,8,B3,8A,00,00,33,FA,28,33,
0,00000288,false,Rx,0,8,2C,33,D5,00,00,75,6B,53,
0,00000380,false,Rx,0,8,B0,44,00,96,20,00,00,FE,
0,00000488,false,Rx,0,8,60,33,00,72,FE,FF,00,20,
0,00000480,false,Rx,0,8,84,2C,00,00,19,40,00,F1,
0,00000284,false,Rx,0,6,0A,0A,00,00,00,00,00,00,
810000,00000588,false,Rx,0,8,0B,00,72,00,00,80,00,00,
0,00000280,false,Rx,0,8,B3,8A,00,00,33,FA,28,33,
0,00000288,false,Rx,0,8,2C,33,D5,00,00,75,6B,53,
0,00000380,false,Rx,0,8,B0,44,00,96,20,00,00,FE,
0,00000488,false,Rx,0,8,70,33,00,72,FE,FF,00,30,
0,00000280,false,Rx,0,8,B3,8A,00,00,33,FA,28,33,
0,00000288,false,Rx,0,8,64,33,D5,00,00,75,6B,53,
0,00000380,false,Rx,0,8,B0,44,00,96,20,00,00,FE,
0,00000488,false,Rx,0,8,00,33,00,72,FE,FF,00,40,
0,00000480,false,Rx,0,8,84,2C,00,00,19,40,00,F1,
0,00000284,false,Rx,0,6,0B,0B,00,00,00,00,00,00,
0,00000588,false,Rx,0,8,0B,00,72,00,00,80,00,00,
0,00000280,false,Rx,0,8,B3,8A,00,00,33,FA,28,33,
0,00000288,false,Rx,0,8,64,33,D5,00,00,75,6A,53,
0,00000380,false,Rx,0,8,B0,44,00,96,20,00,00,FE,
0,00000488,false,Rx,0,8,EF,33,00,72,FE,FF,FF,50,
0,00000280,false,Rx,0,8,B3,8A,00,00,33,FA,28,33,
0,00000288,false,Rx,0,8,64,33,D5,00,00,75,6A,53,
0,00000380,false,Rx,0,8,B0,44,00,96,20,00,00,FE,
0,00000488,false,Rx,0,8,DF,33,00,72,FE,FF,FF,60,
0,00000480,false,Rx,0,8,C2,2C,00,00,19,40,00,B7,
0,00000284,false,Rx,0,6,0C,0C,00,00,00,00,00,00,
847000,00000588,false,Rx,0,8,0B,00,72,00,00,80,00,00,
0,00000280,false,Rx,0,8,B3,8A,00,00,33,FA,28,33,
0,00000288,false,Rx,0,8,64,33,D5,00,00,75,6A,53,
0,00000380,false,Rx,0,8,B0,44,00,96,20,00,00,FE,
0,00000488,false,Rx,0,8,CF,33,00,72,FE,FF,FF,70,
0,00000280,false,Rx,0,8,B3,8A,00,00,33,FA,28,33,
0,00000288,false,Rx,0,8,8A,33,D5,00,00,75,6A,53,
0,00000380,false,Rx,0,8,B0,44,00,96,20,00,00,FE,
0,00000488,false,Rx,0,8,3F,33,00,72,FE,FF,FF,80,
0,00000480,false,Rx,0,8,C2,2C,00,00,19,40,00,B7,
0,00000284,false,Rx,0,6,0D,0D,00,00,00,00,00,00,
0,00000588,false,Rx,0,8,0B,00,72,00,00,80,00,00,
0,00000280,false,Rx,0,8,B3,8A,00,00,33,FA,28,33,
0,00000288,false,Rx,0,8,8A,33,D5,00,00,75,6A,53,
0,00000380,false,Rx,0,8,B0,44,00,96,20,00,00,FE,
0,00000488,false,Rx,0,8,2F,33,00,72,FE,FF,FF,90,
0,00000280,false,Rx,0,8,B3,8A,00,00,33,FA,28,33,
0,00000288,false,Rx,0,8,8A,33,D5,00,00,75,6A,53,
0,00000380,false,Rx,0,8,B0,44,00,96,20,00,00,FE,
0,00000488,false,Rx,0,8,1F,33,00,72,FE,FF,FF,A0,
0,00000480,false,Rx,0,8,C2,2C,00,00,19,40,00,B7,
0,00000284,false,Rx,0,6,0E,0E,00,00,00,00,00,00,
0,00000588,false,Rx,0,8,0B,00,72,00,00,80,00,00,
0,00000280,false,Rx,0,8,B3,8A,00,00,33,FA,28,33,
0,00000288,false,Rx,0,8,8A,33,D5,00,00,75,6A,53,
0,00000380,false,Rx,0,8,B0,44,00,96,20,00,00,FE,
0,00000488,false,Rx,0,8,0F,33,00,72,FE,FF,FF,B0,
0,00000280,false,Rx,0,8,B3,8A,00,00,33,FA,28,33,
0,00000288,false,Rx,0,8,E8,33,D5,00,00,75,6A,53,
0,00000380,false,Rx,0,8,B0,47,00,96,20,00,00,FE,
0,00000488,false,Rx,0,8,7F,33,00,72,FE,FF,FF,C0,
0,00000480,false,Rx,0,8,C2,2C,00,00,19,40,00,B7,
0,00000284,false,Rx,0,6,0F,0F,00,00,00,00,00,00,
0,00000588,false,Rx,0,8,0B,00,72,00,00,80,00,00,
0,00000280,false,Rx,0,8,B3,8A,00,00,33,FA,28,33,
0,00000288,false,Rx,0,8,E8,33,D5,00,00,75,6A,53,
0,00000380,false,Rx,0,8,B0,47,00,96,20,00,00,FE,
0,00000488,false,Rx,0,8,6F,33,00,72,FE,FF,FF,D0,
0,00000280,false,Rx,0,8,B3,8A,00,00,33,FA,28,33,
0,00000288,false,Rx,0,8,E8,33,D5,00,00,75,6A,53,
0,00000380,false,Rx,0,8,B0,47,00,96,20,00,00,FE,
0,00000488,false,Rx,0,8,5F,33,00,72,FE,FF,FF,E0,
0,00000480,false,Rx,0,8,1C,2C,00,00,19,40,00,69,
0,00000284,false,Rx,0,6,00,00,00,00,00,00,00,00,
0,00000588,false,Rx,0,8,0B,00,72,00,00,80,00,00,
0,00000280,false,Rx,0,8,B3,8A,00,00,33,FA,28,33,
0,00000288,false,Rx,0,8,E8,33,D5,00,00,75,69,53,
0,00000380,false,Rx,0,8,B0,47,00,96,20,00,00,FE,
0,00000488,false,Rx,0,8,4F,33,00,72,FE,FF,FF,F0,
0,00000280,false,Rx,0,8,B3,8A,00,00,33,FA,28,33,
0,00000288,false,Rx,0,8,2C,33,D5,00,00,75,69,53,
0,00000380,false,Rx,0,8,B0,47,00,96,20,00,00,FE,
0,00000488,false,Rx,0,8,40,33,00,72,FE,FF,00,00,
0,00000480,false,Rx,0,8,1C,2C,00,00,19,40,00,69,
0,00000284,false,Rx,0,6,01,01,00,00,00,00,00,00,
0,00000588,false,Rx,0,8,0B,00,72,00,00,80,00,00,
0,00000280,false,Rx,0,8,B3,8A,00,00,33,FA,28,33,
0,00000288,false,Rx,0,8,2C,33,D5,00,00,75,69,53,
0,00000380,false,Rx,0,8,B0,47,00,96,20,00,00,FE,
0,00000488,false,Rx,0,8,AF,33,00,72,FE,FF,FF,10,
0,00000280,false,Rx,0,8,B3,8A,00,00,33,FA,28,33,
0,00000288,false,Rx,0,8,2C,33,D5,00,00,75,69,53,
0,00000380,false,Rx,0,8,B0,47,00,96,20,00,00,FE,
0,00000488,false,Rx,0,8,60,33,00,72,FE,FF,00,20,
0,00000480,false,Rx,0,8,1C,2C,00,00,19,40,00,69,
0,00000284,false,Rx,0,6,02,02,00,00,00,00,00,00,
970000,00000588,false,Rx,0,8,0B,00,72,00,00,80,00,00,
0,00000280,false,Rx,0,8,B3,8A,00,00,33,FA,28,33,
0,00000288,false,Rx,0,8,2C,33,D5,00,00,75,69,53,
0,00000380,false,Rx,0,8,B0,47,00,96,20,00,00,FE,
978000,00000488,false,Rx,0,8,70,33,00,72,FE,FF,00,30,
0,00000280,false,Rx,0,8,B3,8A,00,00,33,FA,28,33,
0,00000288,false,Rx,0,8,64,33,D5,00,00,75,69,53,
0,00000380,false,Rx,0,8,B0,47,00,96,20,00,00,FE,
0,00000488,false,Rx,0,8,00,33,00,72,FE,FF,00,40,
0,00000480,false,Rx,0,8,1C,2C,00,00,19,40,00,69,
0,00000284,false,Rx,0,6,03,03,00,00,00,00,00,00,
991000,00000588,false,Rx,0,8,0B,00,72,00,00,80,00,00,
0,00000280,false,Rx,0,8,B3,8A,00,00,33,FA,28,33,
0,00000288,false,Rx,0,8,64,33,D5,00,00,75,69,53,
0,00000380,false,Rx,0,8,B0,47,00,96,20,00,00,FE,
999000,00000488,false,Rx,0,8,EF,33,00,72,FE,FF,FF,50,
0,00000280,false,Rx,0,8,B3,8A,00,00,33,FA,28,33,
0,00000288,false,Rx,0,8,64,33,D5,00,00,75,69,53,
0,00000380,false,Rx,0,8,B0,4A,00,96,20,00,00,FE,
0,00000488,false,Rx,0,8,DF,33,00,72,FE,FF,FF,60,
0,00000480,false,Rx,0,8,54,2C,00,00,19,40,00,21,
0,00000284,false,Rx,0,6,04,04,00,00,00,00,00,00,
11000,00000588,false,Rx,0,8,0B,00,72,00,00,80,00,00,
0,00000280,false,Rx,0,8,B3,8A,00,00,33,FA,28,33,
0,00000288,false,Rx,0,8,64,33,D5,00,00,75,69,53,
0,00000380,false,Rx,0,8,B0,4A,00,96,20,00,00,FE,
0,00000488,false,Rx,0,8,CF,33,00,72,FE,FF,FF,70,
0,00000280,false,Rx,0,8,B3,8A,00,00,33,FA,28,33,
0,00000288,false,Rx,0,8,8A,33,D5,00,00,75,69,53,
0,00000380,false,Rx,0,8,B0,4A,00,96,20,00,00,FE,
0,00000488,false,Rx,0,8,3F,33,00,72,FE,FF,FF,80,
0,00000480,false,Rx,0,8,54,2C,00,00,19,40,00,21,
0,00000284,false,Rx,0,6,05,05,00,00,00,00,00,00,
