Time Stamp,ID,Extended,Dir,Bus,LEN,D1,D2,D3,D4,D5,D6,D7,D8
0,00000488,false,Rx,0,8,70,23,00,72,FE,FF,00,20,
0,00000480,false,Rx,0,8,1C,2C,00,00,19,41,00,68,
0,00000284,false,Rx,0,6,02,02,00,00,00,00,00,00,
0,00000588,false,Rx,0,8,0B,00,72,00,00,80,00,00,
0,00000280,false,Rx,0,8,B3,8D,00,00,23,FA,1A,23,
0,00000288,false,Rx,0,8,2C,5B,D5,00,00,6B,56,8C,
0,00000380,false,Rx,0,8,B0,80,00,76,20,00,00,FE,
0,00000488,false,Rx,0,8,60,23,00,72,FE,FF,00,30,
0,00000280,false,Rx,0,8,B3,8D,00,00,23,FA,1A,23,
0,00000288,false,Rx,0,8,64,5B,D5,00,00,6B,56,8C,
0,00000380,false,Rx,0,8,B0,80,00,76,20,00,00,FE,
0,00000488,false,Rx,0,8,10,23,00,72,FE,FF,00,40,
0,00000480,false,Rx,0,8,1C,2C,00,00,19,41,00,68,
376000,00000588,false,Rx,0,8,0B,00,72,00,00,80,00,00,
0,00000284,false,Rx,0,6,03,03,00,00,00,00,00,00,
0,00000280,false,Rx,0,8,B3,8D,00,00,23,FA,1A,23,
0,00000288,false,Rx,0,8,64,5B,D5,00,00,6B,56,8C,
0,00000380,false,Rx,0,8,B0,80,00,76,20,00,00,FE,
0,00000488,false,Rx,0,8,FF,23,00,72,FE,FF,FF,50,
0,00000280,false,Rx,0,8,B3,8D,00,00,23,FA,1A,23,
0,00000288,false,Rx,0,8,64,5B,D5,00,00,6B,56,8C,
0,00000380,false,Rx,0,8,B0,80,00,76,20,00,00,FE,
0,00000488,false,Rx,0,8,CF,23,00,72,FE,FF,FF,60,
0,00000480,false,Rx,0,8,54,2C,00,00,19,41,00,20,
0,00000588,false,Rx,0,8,0B,00,72,00,00,80,00,00,
396000,00000284,false,Rx,0,6,04,04,00,00,00,00,00,00,
0,00000280,false,Rx,0,8,B3,8D,00,00,23,FA,1A,23,
0,00000288,false,Rx,0,8,64,5B,D5,00,00,6B,56,8C,
0,00000380,false,Rx,0,8,B0,80,00,76,20,00,00,FE,
404000,00000488,false,Rx,0,8,DF,23,00,72,FE,FF,FF,70,
0,00000280,false,Rx,0,8,B3,8D,00,00,23,FA,1A,23,
0,00000288,false,Rx,0,8,8A,5B,D5,00,00,6B,56,8C,
0,00000380,false,Rx,0,8,B0,80,00,76,20,00,00,FE,
0,00000488,false,Rx,0,8,2F,23,00,72,FE,FF,FF,80,
0,00000480,false,Rx,0,8,54,2C,00,00,19,41,00,20,
0,00000588,false,Rx,0,8,0B,00,72,00,00,80,00,00,
0,00000284,false,Rx,0,6,05,05,00,00,00,00,00,00,
0,00000280,false,Rx,0,8,B3,8D,00,00,23,FA,1A,23,
0,00000288,false,Rx,0,8,8A,5B,D5,00,00,6B,56,8C,
0,00000380,false,Rx,0,8,B0,80,00,76,20,00,00,FE,
0,00000488,false,Rx,0,8,3F,23,00,72,FE,FF,FF,90,
0,00000280,false,Rx,0,8,B3,8D,00,00,23,FA,1A,23,
0,00000288,false,Rx,0,8,8A,5B,D5,00,00,6B,56,8C,
0,00000380,false,Rx,0,8,B0,80,00,76,20,00,00,FE,
0,00000488,false,Rx,0,8,0F,23,00,72,FE,FF,FF,A0,
0,00000480,false,Rx,0,8,54,2C,00,00,19,41,00,20,
0,00000588,false,Rx,0,8,0B,00,72,00,00,80,00,00,
0,00000284,false,Rx,0,6,06,06,00,00,00,00,00,00,
0,00000280,false,Rx,0,8,B3,8D,00,00,23,FA,1A,23,
0,00000288,false,Rx,0,8,8A,5B,D5,00,00,6B,56,8C,
0,00000380,false,Rx,0,8,B0,80,00,76,20,00,00,FE,
0,00000488,false,Rx,0,8,1F,23,00,72,FE,FF,FF,B0,
0,00000280,false,Rx,0,8,B3,8D,00,00,23,FA,1A,23,
0,00000288,false,Rx,0,8,E8,5B,D5,00,00,6B,56,8C,
0,00000380,false,Rx,0,8,B0,80,00,76,20,00,00,FE,
0,00000488,false,Rx,0,8,6F,23,00,72,FE,FF,FF,C0,
0,00000480,false,Rx,0,8,54,2C,00,00,19,41,00,20,
0,00000588,false,Rx,0,8,0B,00,72,00,00,80,00,00,
0,00000284,false,Rx,0,6,07,07,00,00,00,00,00,00,
0,00000280,false,Rx,0,8,B3,8D,00,00,23,FA,1A,23,
0,00000288,false,Rx,0,8,E8,5B,D5,00,00,6B,56,8C,
0,00000380,false,Rx,0,8,B0,80,00,76,20,00,00,FE,
0,00000488,false,Rx,0,8,7F,23,00,72,FE,FF,FF,D0,
0,00000280,false,Rx,0,8,B3,8D,00,00,23,FA,1A,23,
0,00000288,false,Rx,0,8,E8,5B,D5,00,00,6B,56,8C,
0,00000380,false,Rx,0,8,B0,80,00,76,20,00,00,FE,
0,00000488,false,Rx,0,8,4F,23,00,72,FE,FF,FF,E0,
0,00000480,false,Rx,0,8,84,2C,00,00,19,41,00,F0,
0,00000588,false,Rx,0,8,0B,00,72,00,00,80,00,00,
474000,00000284,false,Rx,0,6,08,08,00,00,00,00,00,00,
0,00000280,false,Rx,0,8,B3,8D,00,00,23,FA,1A,23,
0,00000288,false,Rx,0,8,E8,5B,D5,00,00,6B,56,8C,
0,00000380,false,Rx,0,8,B0,80,00,76,20,00,00,FE,
0,00000488,false,Rx,0,8,5F,23,00,72,FE,FF,FF,F0,
0,00000280,false,Rx,0,8,B3,8D,00,00,23,FA,1A,23,
0,00000288,false,Rx,0,8,2C,5B,D5,00,00,6B,56,8C,
0,00000380,false,Rx,0,8,B0,80,00,76,20,00,00,FE,
0,00000488,false,Rx,0,8,50,23,00,72,FE,FF,00,00,
0,00000480,false,Rx,0,8,84,2C,00,00,19,41,00,F0,
0,00000588,false,Rx,0,8,0B,00,72,00,00,80,00,00,
0,00000284,false,Rx,0,6,09,09,00,00,00,00,00,00,
0,00000280,false,Rx,0,8,B3,8D,00,00,23,FA,1A,23,
0,00000288,false,Rx,0,8,2C,5B,D5,00,00,6B,56,8C,
0,00000380,false,Rx,0,8,B0,80,00,76,20,00,00,FE,
0,00000488,false,Rx,0,8,BF,23,00,72,FE,FF,FF,10,
0,00000280,false,Rx,0,8,B3,8D,00,00,23,FA,1A,23,
0,00000288,false,Rx,0,8,2C,5B,D5,00,00,6B,56,8C,
0,00000380,false,Rx,0,8,B0,80,00,76,20,00,00,FE,
0,00000488,false,Rx,0,8,70,23,00,72,FE,FF,00,20,
0,00000480,false,Rx,0,8,84,2C,00,00,19,41,00,F0,
0,00000588,false,Rx,0,8,0B,00,72,00,00,80,00,00,
0,00000284,false,Rx,0,6,0A,0A,00,00,00,00,00,00,
0,00000280,false,Rx,0,8,B3,8D,00,00,23,FA,1A,23,
0,00000288,false,Rx,0,8,2C,5B,D5,00,00,6B,56,8C,
0,00000380,false,Rx,0,8,B0,80,00,76,20,00,00,FE,
0,00000488,false,Rx,0,8,60,23,00,72,FE,FF,00,30,
0,00000280,false,Rx,0,8,B3,8D,00,00,23,FA,1A,23,
0,00000288,false,Rx,0,8,64,5B,D5,00,00,6B,56,8C,
0,00000380,false,Rx,0,8,B0,80,00,76,20,00,00,FE,
0,00000488,false,Rx,0,8,10,23,00,72,FE,FF,00,40,
0,00000480,false,Rx,0,8,84,2C,00,00,19,41,00,F0,
536000,00000588,false,Rx,0,8,0B,00,72,00,00,80,00,00,
0,00000284,false,Rx,0,6,0B,0B,00,00,00,00,00,00,
0,00000280,false,Rx,0,8,B3,8D,00,00,23,FA,1A,23,
0,00000288,false,Rx,0,8,64,5B,D5,00,00,6B,56,8C,
0,00000380,false,Rx,0,8,B0,80,00,76,20,00,00,FE,
0,00000488,false,Rx,0,8,FF,23,00,72,FE,FF,FF,50,
0,00000280,false,Rx,0,8,B3,8D,00,00,23,FA,1A,23,
0,00000288,false,Rx,0,8,64,5B,D5,00,00,6B,56,8C,
0,00000380,false,Rx,0,8,B0,80,00,76,20,00,00,FE,
0,00000488,false,Rx,0,8,CF,23,00,72,FE,FF,FF,60,
0,00000480,false,Rx,0,8,C2,2C,00,00,19,41,00,B6,
556000,00000588,false,Rx,0,8,0B,00,72,00,00,80,00,00,
0,00000284,false,Rx,0,6,0C,0C,00,00,00,00,00,00,
0,00000280,false,Rx,0,8,B3,8D,00,00,23,FA,1A,23,
0,00000288,false,Rx,0,8,64,5B,D5,00,00,6B,56,8C,
0,00000380,false,Rx,0,8,B0,80,00,76,20,00,00,FE,
0,00000488,false,Rx,0,8,DF,23,00,72,FE,FF,FF,70,
0,00000280,false,Rx,0,8,B3,8D,00,00,23,FA,1A,23,
0,00000288,false,Rx,0,8,8A,5B,D5,00,00,6B,56,8C,
0,00000380,false,Rx,0,8,B0,80,00,76,20,00,00,FE,
0,00000488,false,Rx,0,8,2F,23,00,72,FE,FF,FF,80,
0,00000480,false,Rx,0,8,C2,2C,00,00,19,41,00,B6,
0,00000588,false,Rx,0,8,0B,00,72,00,00,80,00,00,
576000,00000284,false,Rx,0,6,0D,0D,00,00,00,00,00,00,
0,00000280,false,Rx,0,8,B3,8D,00,00,23,FA,1A,23,
0,00000288,false,Rx,0,8,8A,5B,D5,00,00,6B,56,8C,
0,00000380,false,Rx,0,8,B0,80,00,76,20,00,00,FE,
0,00000488,false,Rx,0,8,3F,23,00,72,FE,FF,FF,90,
0,00000280,false,Rx,0,8,B3,8D,00,00,23,FA,1A,23,
0,00000288,false,Rx,0,8,8A,5B,D5,00,00,6B,56,8C,
0,00000380,false,Rx,0,8,B0,80,00,76,20,00,00,FE,
0,00000488,false,Rx,0,8,0F,23,00,72,FE,FF,FF,A0,
0,00000480,false,Rx,0,8,C2,2C,00,00,19,41,00,B6,
0,00000588,false,Rx,0,8,0B,00,72,00,00,80,00,00,
0,00000284,false,Rx,0,6,0E,0E,00,00,00,00,00,00,
0,00000280,false,Rx,0,8,B3,8D,00,00,23,FA,1A,23,
0,00000288,false,Rx,0,8,8A,5B,D5,00,00,6B,56,8C,
0,00000380,false,Rx,0,8,B0,80,00,76,20,00,00,FE,
605000,00000488,false,Rx,0,8,1F,23,00,72,FE,FF,FF,B0,
0,00000280,false,Rx,0,8,B3,8D,00,00,23,FA,1A,23,
0,00000288,false,Rx,0,8,E8,5B,D5,00,00,6B,56,8C,
0,00000380,false,Rx,0,8,B0,80,00,76,20,00,00,FE,
0,00000488,false,Rx,0,8,6F,23,00,72,FE,FF,FF,C0,
0,00000480,false,Rx,0,8,C2,2C,00,00,19,41,00,B6,
0,00000588,false,Rx,0,8,0B,00,72,00,00,80,00,00,
0,00000284,false,Rx,0,6,0F,0F,00,00,00,00,00,00,
0,00000280,false,Rx,0,8,B3,8D,00,00,23,FA,1A,23,
0,00000288,false,Rx,0,8,E8,5B,D5,00,00,6B,56,8C,
0,00000380,false,Rx,0,8,B0,80,00,76,20,00,00,FE,
0,00000488,false,Rx,0,8,7F,23,00,72,FE,FF,FF,D0,
630000,00000280,false,Rx,0,8,B3,8D,00,00,23,FA,1A,23,
0,00000288,false,Rx,0,8,E8,5B,D5,00,00,6B,56,8C,
0,00000380,false,Rx,0,8,B0,80,00,76,20,00,00,FE,
0,00000488,false,Rx,0,8,4F,23,00,72,FE,FF,FF,E0,
0,00000480,false,Rx,0,8,1C,2C,00,00,19,41,00,68,
0,00000588,false,Rx,0,8,0B,00,72,00,00,80,00,00,
0,00000284,false,Rx,0,6,00,00,00,00,00,00,00,00,
0,00000280,false,Rx,0,8,B3,8D,00,00,23,FA,1A,23,
0,00000288,false,Rx,0,8,E8,5B,D5,00,00,6B,56,8C,
0,00000380,false,Rx,0,8,B0,80,00,76,20,00,00,FE,
0,00000488,false,Rx,0,8,5F,23,00,72,FE,FF,FF,F0,
0,00000280,false,Rx,0,8,B3,8D,00,00,23,FA,1A,23,
0,00000288,false,Rx,0,8,2C,5B,D5,00,00,6B,56,8C,
0,00000380,false,Rx,0,8,B0,80,00,76,20,00,00,FE,
0,00000488,false,Rx,0,8,50,23,00,72,FE,FF,00,00,
0,00000480,false,Rx,0,8,1C,2C,00,00,19,41,00,68,
0,00000588,false,Rx,0,8,0B,00,72,00,00,80,00,00,
654000,00000284,false,Rx,0,6,01,01,00,00,00,00,00,00,
0,00000280,false,Rx,0,8,B3,8D,00,00,23,FA,1A,23,
0,00000288,false,Rx,0,8,2C,5B,D5,00,00,6B,56,8C,
0,00000380,false,Rx,0,8,B0,80,00,76,20,00,00,FE,
0,00000488,false,Rx,0,8,BF,23,00,72,FE,FF,FF,10,
0,00000280,false,Rx,0,8,B3,8D,00,00,23,FA,1A,23,
0,00000288,false,Rx,0,8,2C,5B,D5,00,00,6B,56,8C,
0,00000380,false,Rx,0,8,B0,80,00,76,20,00,00,FE,
0,00000488,false,Rx,0,8,70,23,00,72,FE,FF,00,20,
0,00000480,false,Rx,0,8,1C,2C,00,00,19,41,00,68,
0,00000588,false,Rx,0,8,0B,00,72,00,00,80,00,00,
0,00000284,false,Rx,0,6,02,02,00,00,00,00,00,00,
0,00000280,false,Rx,0,8,B3,8D,00,00,23,FA,1A,23,
0,00000288,false,Rx,0,8,2C,5B,D5,00,00,6B,56,8C,
0,00000380,false,Rx,0,8,B0,80,00,76,20,00,00,FE,
0,00000488,false,Rx,0,8,60,23,00,72,FE,FF,00,30,
0,00000280,false,Rx,0,8,B3,8D,00,00,23,FA,1A,23,
0,00000288,false,Rx,0,8,64,5B,D5,00,00,6B,56,8C,
0,00000380,false,Rx,0,8,B0,80,00,76,20,00,00,FE,
0,00000488,false,Rx,0,8,10,23,00,72,FE,FF,00,40,
0,00000480,false,Rx,0,8,1C,2C,00,00,19,41,00,68,
0,00000284,false,Rx,0,6,03,03,00,00,00,00,00,00,
0,00000588,false,Rx,0,8,0B,00,72,00,00,80,00,00,
0,00000280,false,Rx,0,8,B3,8D,00,00,23,FA,1A,23,
0,00000288,false,Rx,0,8,64,5B,D5,00,00,6B,56,8C,
0,00000380,false,Rx,0,8,B0,80,00,76,20,00,00,FE,
0,00000488,false,Rx,0,8,FF,23,00,72,FE,FF,FF,50,
0,00000280,false,Rx,0,8,B3,8D,00,00,23,FA,1A,23,
0,00000288,false,Rx,0,8,64,5B,D5,00,00,6B,56,8C,
0,00000380,false,Rx,0,8,B0,80,00,76,20,00,00,FE,
0,00000488,false,Rx,0,8,CF,23,00,72,FE,FF,FF,60,
0,00000480,false,Rx,0,8,54,2C,00,00,19,41,00,20,
0,00000588,false,Rx,0,8,0B,00,72,00,00,80,00,00,
0,00000284,false,Rx,0,6,04,04,00,00,00,00,00,00,
0,00000280,false,Rx,0,8,B3,8D,00,00,23,FA,1A,23,
0,00000288,false,Rx,0,8,64,5B,D5,00,00,6B,56,8C,
0,00000380,false,Rx,0,8,B0,80,00,76,20,00,00,FE,
0,00000488,false,Rx,0,8,DF,23,00,72,FE,FF,FF,70,
0,00000280,false,Rx,0,8,B3,8D,00,00,23,FA,1A,23,
0,00000288,false,Rx,0,8,8A,5B,D5,00,00,6B,56,8C,
0,00000380,false,Rx,0,8,B0,80,00,76,20,00,00,FE,
0,00000488,false,Rx,0,8,2F,23,00,72,FE,FF,FF,80,
0,00000480,false,Rx,0,8,54,2C,00,00,19,41,00,20,
0,00000588,false,Rx,0,8,0B,00,72,00,00,80,00,00,
0,00000284,false,Rx,0,6,05,05,00,00,00,00,00,00,
0,00000740,false,Rx,0,1,A3,00,00,00,00,00,00,00,
0,00000300,false,Rx,0,6,A1,0F,8A,FF,4A,FF,00,00,
0,00000280,false,Rx,0,8,B3,8D,00,00,23,FA,1A,23,
0,00000288,false,Rx,0,8,8A,5B,D5,00,00,6B,56,8C,
0,00000380,false,Rx,0,8,B0,80,00,76,20,00,00,FE,
0,00000488,false,Rx,0,8,3F,23,00,72,FE,FF,FF,90,
0,00000280,false,Rx,0,8,B3,8D,00,00,23,FA,1A,23,
0,00000288,false,Rx,0,8,8A,5B,D5,00,00,6B,56,8C,
0,00000380,false,Rx,0,8,B0,80,00,76,20,00,00,FE,
0,00000488,false,Rx,0,8,0F,23,00,72,FE,FF,FF,A0,
0,00000480,false,Rx,0,8,54,2C,00,00,19,41,00,20,
757000,00000588,false,Rx,0,8,0B,00,72,00,00,80,00,00,
0,00000284,false,Rx,0,6,06,06,00,00,00,00,00,00,
0,00000280,false,Rx,0,8,B3,8D,00,00,23,FA,1A,23,
0,00000288,false,Rx,0,8,8A,5B,D5,00,00,6B,56,8C,
0,00000380,false,Rx,0,8,B0,80,00,76,20,00,00,FE,
0,00000488,false,Rx,0,8,1F,23,00,72,FE,FF,FF,B0,
0,00000280,false,Rx,0,8,B3,8D,00,00,23,FA,1A,23,
0,00000288,false,Rx,0,8,E8,5B,D5,00,00,6B,56,8C,
0,00000380,false,Rx,0,8,B0,80,00,76,20,00,00,FE,
0,00000488,false,Rx,0,8,6F,23,00,72,FE,FF,FF,C0,
0,00000480,false,Rx,0,8,54,2C,00,00,19,41,00,20,
0,00000284,false,Rx,0,6,07,07,00,00,00,00,00,00,
777000,00000588,false,Rx,0,8,0B,00,72,00,00,80,00,00,
0,00000280,false,Rx,0,8,B3,8D,00,00,23,FA,1A,23,
0,00000288,false,Rx,0,8,E8,5B,D5,00,00,6B,56,8C,
0,00000380,false,Rx,0,8,B0,80,00,76,20,00,00,FE,
785000,00000488,false,Rx,0,8,7F,23,00,72,FE,FF,FF,D0,
0,00000280,false,Rx,0,8,B3,8D,00,00,23,FA,1A,23,
0,00000288,false,Rx,0,8,E8,5B,D5,00,00,6B,56,8C,
0,00000380,false,Rx,0,8,B0,80,00,76,20,00,00,FE,
0,00000488,false,Rx,0,8,4F,23,00,72,FE,FF,FF,E0,
0,00000480,false,Rx,0,8,84,2C,00,00,19,41,00,F0,
0,00000588,false,Rx,0,8,0B,00,72,00,00,80,00,00,
0,00000284,false,Rx,0,6,08,08,00,00,00,00,00,00,
0,00000280,false,Rx,0,8,B3,8D,00,00,23,FA,1A,23,
0,00000288,false,Rx,0,8,E8,5B,D5,00,00,6B,56,8C,
0,00000380,false,Rx,0,8,B0,80,00,76,20,00,00,FE,
0,00000488,false,Rx,0,8,5F,23,00,72,FE,FF,FF,F0,
0,00000280,false,Rx,0,8,B3,8D,00,00,23,FA,1A,23,
0,00000288,false,Rx,0,8,2C,5B,D5,00,00,6B,56,8C,
0,00000380,false,Rx,0,8,B0,80,00,76,20,00,00,FE,
0,00000488,false,Rx,0,8,50,23,00,72,FE,FF,00,00,
0,00000480,false,Rx,0,8,84,2C,00,00,19,41,00,F0,
0,00000588,false,Rx,0,8,0B,00,72,00,00,80,00,00,
0,00000284,false,Rx,0,6,09,09,00,00,00,00,00,00,
0,00000280,false,Rx,0,8,B3,8D,00,00,23,FA,1A,23,
0,00000288,false,Rx,0,8,2C,5B,D5,00,00,6B,56,8C,
0,00000380,false,Rx,0,8,B0,80,00,76,20,00,00,FE,
0,00000488,false,Rx,0,8,BF,23,00,72,FE,FF,FF,10,
0,00000280,false,Rx,0,8,B3,8D,00,00,23,FA,1A,23,
0,00000288,false,Rx,0,8,2C,5B,D5,00,00,6B,56,8C,
0,00000380,false,Rx,0,8,B0,80,00,76,20,00,00,FE,
0,00000488,false,Rx,0,8,70,23,00,72,FE,FF,00,20,
0,00000480,false,Rx,0,8,84,2C,00,00,19,41,00,F0,
834000,00000588,false,Rx,0,8,0B,00,72,00,00,80,00,00,
0,00000284,false,Rx,0,6,0A,0A,00,00,00,00,00,00,
0,00000280,false,Rx,0,8,B3,8D,00,00,23,FA,1A,23,
0,00000288,false,Rx,0,8,2C,5B,D5,00,00,6B,56,8C,
0,00000380,false,Rx,0,8,B0,80,00,76,20,00,00,FE,
0,00000488,false,Rx,0,8,60,23,00,72,FE,FF,00,30,
0,00000280,false,Rx,0,8,B3,8D,00,00,23,FA,1A,23,
0,00000288,false,Rx,0,8,64,5B,D5,00,00,6B,56,8C,
0,00000380,false,Rx,0,8,B0,80,00,76,20,00,00,FE,
0,00000488,false,Rx,0,8,10,23,00,72,FE,FF,00,40,
0,00000480,false,Rx,0,8,84,2C,00,00,19,41,00,F0,
0,00000284,false,Rx,0,6,0B,0B,00,00,00,00,00,00,
855000,00000588,false,Rx,0,8,0B,00,72,00,00,80,00,00,
0,00000280,false,Rx,0,8,B3,8D,00,00,23,FA,1A,23,
0,00000288,false,Rx,0,8,64,5B,D5,00,00,6B,56,8C,
0,00000380,false,Rx,0,8,B0,80,00,76,20,00,00,FE,
0,00000488,false,Rx,0,8,FF,23,00,72,FE,FF,FF,50,
867000,00000580,false,Rx,0,8,87,00,00,11,1F,E0,0C,46,
0,00000280,false,Rx,0,8,B3,8D,00,00,23,FA,1A,23,
0,00000288,false,Rx,0,8,64,5B,D5,00,00,6B,56,8C,
0,00000380,false,Rx,0,8,B0,80,00,76,20,00,00,FE,
0,00000488,false,Rx,0,8,CF,23,00,72,FE,FF,FF,60,
0,00000480,false,Rx,0,8,C2,2C,00,00,19,41,00,B6,
0,00000588,false,Rx,0,8,0B,00,72,00,00,80,00,00,
0,00000284,false,Rx,0,6,0C,0C,00,00,00,00,00,00,
0,00000280,false,Rx,0,8,B3,8D,00,00,23,FA,1A,23,
0,00000288,false,Rx,0,8,64,5B,D5,00,00,6B,56,8C,
0,00000380,false,Rx,0,8,B0,80,00,76,20,00,00,FE,
0,00000488,false,Rx,0,8,DF,23,00,72,FE,FF,FF,70,
0,00000280,false,Rx,0,8,B3,8D,00,00,23,FA,1A,23,
0,00000288,false,Rx,0,8,8A,5B,D5,00,00,6B,56,8C,
0,00000380,false,Rx,0,8,B0,80,00,76,20,00,00,FE,
0,00000488,false,Rx,0,8,2F,23,00,72,FE,FF,FF,80,
0,00000480,false,Rx,0,8,C2,2C,00,00,19,41,00,B6,
0,00000588,false,Rx,0,8,0B,00,72,00,00,80,00,00,
0,00000284,false,Rx,0,6,0D,0D,00,00,00,00,00,00,
0,00000280,false,Rx,0,8,B3,8D,00,00,23,FA,1A,23,
0,00000288,false,Rx,0,8,8A,5B,D5,00,00,6B,56,8C,
0,00000380,false,Rx,0,8,B0,80,00,76,20,00,00,FE,
0,00000488,false,Rx,0,8,3F,23,00,72,FE,FF,FF,90,
0,00000280,false,Rx,0,8,B3,8D,00,00,23,FA,1A,23,
0,00000288,false,Rx,0,8,8A,5B,D5,00,00,6B,56,8C,
0,00000380,false,Rx,0,8,B0,80,00,76,20,00,00,FE,
0,00000488,false,Rx,0,8,0F,23,00,72,FE,FF,FF,A0,
0,00000480,false,Rx,0,8,C2,2C,00,00,19,41,00,B6,
916000,00000588,false,Rx,0,8,0B,00,72,00,00,80,00,00,
0,00000284,false,Rx,0,6,0E,0E,00,00,00,00,00,00,
0,00000280,false,Rx,0,8,B3,8D,00,00,23,FA,1A,23,
0,00000288,false,Rx,0,8,8A,5B,D5,00,00,6B,56,8C,
0,00000380,false,Rx,0,8,B0,80,00,76,20,00,00,FE,
0,00000488,false,Rx,0,8,1F,23,00,72,FE,FF,FF,B0,
0,00000280,false,Rx,0,8,B3,8D,00,00,23,FA,1A,23,
0,00000288,false,Rx,0,8,E8,5B,D5,00,00,6B,56,8C,
0,00000380,false,Rx,0,8,B0,80,00,76,20,00,00,FE,
0,00000488,false,Rx,0,8,6F,23,00,72,FE,FF,FF,C0,
0,00000480,false,Rx,0,8,C2,2C,00,00,19,41,00,B6,
0,00000284,false,Rx,0,6,0F,0F,00,00,00,00,00,00,
0,00000588,false,Rx,0,8,0B,00,72,00,00,80,00,00,
0,00000280,false,Rx,0,8,B3,8D,00,00,23,FA,1A,23,
0,00000288,false,Rx,0,8,E8,5B,D5,00,00,6B,56,8C,
0,00000380,false,Rx,0,8,B0,80,00,76,20,00,00,FE,
0,00000488,false,Rx,0,8,7F,23,00,72,FE,FF,FF,D0,
0,00000280,false,Rx,0,8,B3,8D,00,00,23,FA,1A,23,
0,00000288,false,Rx,0,8,E8,5B,D5,00,00,6B,56,8C,
0,00000380,false,Rx,0,8,B0,80,00,76,20,00,00,FE,
0,00000488,false,Rx,0,8,4F,23,00,72,FE,FF,FF,E0,
0,00000480,false,Rx,0,8,1C,2C,00,00,19,41,00,68,
0,00000588,false,Rx,0,8,0B,00,72,00,00,80,00,00,
957000,00000284,false,Rx,0,6,00,00,00,00,00,00,00,00,
0,00000280,false,Rx,0,8,B3,8D,00,00,23,FA,1A,23,
0,00000288,false,Rx,0,8,E8,5B,D5,00,00,6B,56,8C,
0,00000380,false,Rx,0,8,B0,80,00,76,20,00,00,FE,
966000,00000488,false,Rx,0,8,5F,23,00,72,FE,FF,FF,F0,
0,00000280,false,Rx,0,8,B3,8D,00,00,23,FA,1A,23,
0,00000288,false,Rx,0,8,2C,5B,D5,00,00,6B,56,8C,
0,00000380,false,Rx,0,8,B0,80,00,76,20,00,00,FE,
0,00000488,false,Rx,0,8,50,23,00,72,FE,FF,00,00,
0,00000480,false,Rx,0,8,1C,2C,00,00,19,41,00,68,
0,00000588,false,Rx,0,8,0B,00,72,00,00,80,00,00,
0,00000284,false,Rx,0,6,01,01,00,00,00,00,00,00,
0,00000280,false,Rx,0,8,B3,8D,00,00,23,FA,1A,23,
0,00000288,false,Rx,0,8,2C,5B,D5,00,00,6B,56,8C,
0,00000380,false,Rx,0,8,B0,80,00,76,20,00,00,FE,
986000,00000488,false,Rx,0,8,BF,23,00,72,FE,FF,FF,10,
0,00000280,false,Rx,0,8,B3,8D,00,00,23,FA,1A,23,
0,00000288,false,Rx,0,8,2C,5B,D5,00,00,6B,56,8C,
0,00000380,false,Rx,0,8,B0,80,00,76,20,00,00,FE,
0,00000488,false,Rx,0,8,70,23,00,72,FE,FF,00,20,
0,00000480,false,Rx,0,8,1C,2C,00,00,19,41,00,68,
0,00000284,false,Rx,0,6,02,02,00,00,00,00,00,00,
998000,00000588,false,Rx,0,8,0B,00,72,00,00,80,00,00,
0,00000280,false,Rx,0,8,B3,8D,00,00,23,FA,1A,23,
0,00000288,false,Rx,0,8,2C,5B,D5,00,00,6B,56,8C,
0,00000380,false,Rx,0,8,B0,80,00,76,20,00,00,FE,
0,00000488,false,Rx,0,8,60,23,00,72,FE,FF,00,30,
0,00000280,false,Rx,0,8,B3,8D,00,00,23,FA,1A,23,
0,00000288,false,Rx,0,8,64,5B,D5,00,00,6B,56,8C,
0,00000380,false,Rx,0,8,B0,80,00,76,20,00,00,FE,
0,00000488,false,Rx,0,8,10,23,00,72,FE,FF,00,40,
0,00000480,false,Rx,0,8,1C,2C,00,00,19,41,00,68,
0,00000588,false,Rx,0,8,0B,00,72,00,00,80,00,00,
0,00000284,false,Rx,0,6,03,03,00,00,00,00,00,00,
0,00000280,false,Rx,0,8,B3,8D,00,00,23,FA,1A,23,
0,00000288,false,Rx,0,8,64,5B,D5,00,00,6B,56,8C,
0,00000380,false,Rx,0,8,B0,80,00,76,20,00,00,FE,
0,00000488,false,Rx,0,8,FF,23,00,72,FE,FF,FF,50,
0,00000280,false,Rx,0,8,B3,8D,00,00,23,FA,1A,23,
0,00000288,false,Rx,0,8,64,5B,D5,00,00,6B,56,8C,
0,00000380,false,Rx,0,8,B0,80,00,76,20,00,00,FE,
0,00000488,false,Rx,0,8,CF,23,00,72,FE,FF,FF,60,
0,00000480,false,Rx,0,8,54,2C,00,00,19,41,00,20,
0,00000588,false,Rx,0,8,0B,00,72,00,00,80,00,00,
35000,00000284,false,Rx,0,6,04,04,00,00,00,00,00,00,
0,00000280,false,Rx,0,8,B3,8D,00,00,23,FA,1A,23,
0,00000288,false,Rx,0,8,64,5B,D5,00,00,6B,56,8C,
0,00000380,false,Rx,0,8,B0,80,00,76,20,00,00,FE,
0,00000488,false,Rx,0,8,DF,23,00,72,FE,FF,FF,70,
0,00000280,false,Rx,0,8,B3,8D,00,00,23,FA,1A,23,
0,00000288,false,Rx,0,8,8A,5B,D5,00,00,6B,56,8C,
0,00000380,false,Rx,0,8,B0,80,00,76,20,00,00,FE,
0,00000488,false,Rx,0,8,2F,23,00,72,FE,FF,FF,80,
0,00000480,false,Rx,0,8,54,2C,00,00,19,41,00,20,
0,00000284,false,Rx,0,6,05,05,00,00,00,00,00,00,
0,00000588,false,Rx,0,8,0B,00,72,00,00,80,00,00,
0,00000280,false,Rx,0,8,B3,8D,00,00,23,FA,1A,23,
0,00000288,false,Rx,0,8,8A,5B,D5,00,00,6B,56,8C,
0,00000380,false,Rx,0,8,B0,80,00,76,20,00,00,FE,
0,00000488,false,Rx,0,8,3F,23,00,72,FE,FF,FF,90,
0,00000280,false,Rx,0,8,B3,8D,00,00,23,FA,1A,23,
0,00000288,false,Rx,0,8,8A,5B,D5,00,00,6B,56,8C,
0,00000380,false,Rx,0,8,B0,80,00,76,20,00,00,FE,
0,00000488,false,Rx,0,8,0F,23,00,72,FE,FF,FF,A0,
0,00000480,false,Rx,0,8,54,2C,00,00,19,41,00,20,
0,00000284,false,Rx,0,6,06,06,00,00,00,00,00,00,
0,00000588,false,Rx,0,8,0B,00,72,00,00,80,00,00,
0,00000280,false,Rx,0,8,B3,8D,00,00,23,FA,1A,23,
0,00000288,false,Rx,0,8,8A,5B,D5,00,00,6B,56,8C,
0,00000380,false,Rx,0,8,B0,80,00,76,20,00,00,FE,
0,00000488,false,Rx,0,8,1F,23,00,72,FE,FF,FF,B0,
0,00000280,false,Rx,0,8,B3,8D,00,00,23,FA,1A,23,
0,00000288,false,Rx,0,8,E8,5B,D5,00,00,6B,56,8C,
0,00000380,false,Rx,0,8,B0,80,00,76,20,00,00,FE,
0,00000488,false,Rx,0,8,6F,23,00,72,FE,FF,FF,C0,
0,00000480,false,Rx,0,8,54,2C,00,00,19,41,00,20,
0,00000284,false,Rx,0,6,07,07,00,00,00,00,00,00,
0,00000588,false,Rx,0,8,0B,00,72,00,00,80,00,00,
101000,00000280,false,Rx,0,8,B3,8D,00,00,23,FA,1A,23,
0,00000288,false,Rx,0,8,E8,5B,D5,00,00,6B,56,8C,
0,00000380,false,Rx,0,8,B0,80,00,76,20,00,00,FE,
0,00000488,false,Rx,0,8,7F,23,00,72,FE,FF,FF,D0,
0,00000280,false,Rx,0,8,B3,8D,00,00,23,FA,1A,23,
0,00000288,false,Rx,0,8,E8,5B,D5,00,00,6B,56,8C,
0,00000380,false,Rx,0,8,B0,80,00,76,20,00,00,FE,
0,00000488,false,Rx,0,8,4F,23,00,72,FE,FF,FF,E0,
0,00000480,false,Rx,0,8,84,2C,00,00,19,41,00,F0,
117000,00000588,false,Rx,0,8,0B,00,72,00,00,80,00,00,
0,00000284,false,Rx,0,6,08,08,00,00,00,00,00,00,
0,00000280,false,Rx,0,8,B3,8D,00,00,23,FA,1A,23,
0,00000288,false,Rx,0,8,E8,5B,D5,00,00,6B,56,8C,
0,00000380,false,Rx,0,8,B0,80,00,76,20,00,00,FE,
0,00000488,false,Rx,0,8,5F,23,00,72,FE,FF,FF,F0,
0,00000280,false,Rx,0,8,B3,8D,00,00,23,FA,1A,23,
0,00000288,false,Rx,0,8,2C,5B,D5,00,00,6B,56,8C,
0,00000380,false,Rx,0,8,B0,80,00,76,20,00,00,FE,
0,00000488,false,Rx,0,8,50,23,00,72,FE,FF,00,00,
0,00000480,false,Rx,0,8,84,2C,00,00,19,41,00,F0,
0,00000284,false,Rx,0,6,09,09,00,00,00,00,00,00,
138000,00000588,false,Rx,0,8,0B,00,72,00,00,80,00,00,
0,00000280,false,Rx,0,8,B3,8D,00,00,23,FA,1A,23,
0,00000288,false,Rx,0,8,2C,5B,D5,00,00,6B,56,8C,
0,00000380,false,Rx,0,8,B0,80,00,76,20,00,00,FE,
0,00000488,false,Rx,0,8,BF,23,00,72,FE,FF,FF,10,
0,00000280,false,Rx,0,8,B3,8D,00,00,23,FA,1A,23,
0,00000288,false,Rx,0,8,2C,5B,D5,00,00,6B,56,8C,
0,00000380,false,Rx,0,8,B0,80,00,76,20,00,00,FE,
0,00000488,false,Rx,0,8,70,23,00,72,FE,FF,00,20,
0,00000480,false,Rx,0,8,84,2C,00,00,19,41,00,F0,
0,00000588,false,Rx,0,8,0B,00,72,00,00,80,00,00,
158000,00000284,false,Rx,0,6,0A,0A,00,00,00,00,00,00,
0,00000280,false,Rx,0,8,B3,8D,00,00,23,FA,1A,23,
0,00000288,false,Rx,0,8,2C,5B,D5,00,00,6B,56,8C,
0,00000380,false,Rx,0,8,B0,80,00,76,20,00,00,FE,
166000,00000488,false,Rx,0,8,60,23,00,72,FE,FF,00,30,
0,00000280,false,Rx,0,8,B3,8D,00,00,23,FA,1A,23,
0,00000288,false,Rx,0,8,64,5B,D5,00,00,6B,56,8C,
0,00000380,false,Rx,0,8,B0,80,00,76,20,00,00,FE,
0,00000488,false,Rx,0,8,10,23,00,72,FE,FF,00,40,
0,00000480,false,Rx,0,8,84,2C,00,00,19,41,00,F0,
0,00000284,false,Rx,0,6,0B,0B,00,00,00,00,00,00,
179000,00000588,false,Rx,0,8,0B,00,72,00,00,80,00,00,
0,00000280,false,Rx,0,8,B3,8D,00,00,23,FA,1A,23,
0,00000288,false,Rx,0,8,64,5B,D5,00,00,6B,56,8C,
0,00000380,false,Rx,0,8,B0,80,00,76,20,00,00,FE,
0,00000488,false,Rx,0,8,FF,23,00,72,FE,FF,FF,50,
0,00000280,false,Rx,0,8,B3,8D,00,00,23,FA,1A,23,
0,00000288,false,Rx,0,8,64,5B,D5,00,00,6B,56,8C,
0,00000380,false,Rx,0,8,B0,80,00,76,20,00,00,FE,
0,00000488,false,Rx,0,8,CF,23,00,72,FE,FF,FF,60,
0,00000480,false,Rx,0,8,C2,2C,00,00,19,41,00,B6,
0,00000588,false,Rx,0,8,0B,00,72,00,00,80,00,00,
0,00000284,false,Rx,0,6,0C,0C,00,00,00,00,00,00,
0,00000280,false,Rx,0,8,B3,8D,00,00,23,FA,1A,23,
0,00000288,false,Rx,0,8,64,5B,D5,00,00,6B,56,8C,
0,00000380,false,Rx,0,8,B0,80,00,76,20,00,00,FE,
0,00000488,false,Rx,0,8,DF,23,00,72,FE,FF,FF,70,
0,00000280,false,Rx,0,8,B3,8D,00,00,23,FA,1A,23,
0,00000288,false,Rx,0,8,8A,5B,D5,00,00,6B,56,8C,
0,00000380,false,Rx,0,8,B0,80,00,76,20,00,00,FE,
0,00000488,false,Rx,0,8,2F,23,00,72,FE,FF,FF,80,
0,00000480,false,Rx,0,8,C2,2C,00,00,19,41,00,B6,
0,00000284,false,Rx,0,6,0D,0D,00,00,00,00,00,00,
215000,00000588,false,Rx,0,8,0B,00,72,00,00,80,00,00,
0,00000280,false,Rx,0,8,B3,8D,00,00,23,FA,1A,23,
0,00000288,false,Rx,0,8,8A,5B,D5,00,00,6B,56,8C,
0,00000380,false,Rx,0,8,B0,80,00,76,20,00,00,FE,
0,00000488,false,Rx,0,8,3F,23,00,72,FE,FF,FF,90,
0,00000280,false,Rx,0,8,B3,8D,00,00,23,FA,1A,23,
0,00000288,false,Rx,0,8,8A,5B,D5,00,00,6B,56,8C,
0,00000380,false,Rx,0,8,B0,80,00,76,20,00,00,FE,
0,00000488,false,Rx,0,8,0F,23,00,72,FE,FF,FF,A0,
0,00000480,false,Rx,0,8,C2,2C,00,00,19,41,00,B6,
0,00000284,false,Rx,0,6,0E,0E,00,00,00,00,00,00,
0,00000588,false,Rx,0,8,0B,00,72,00,00,80,00,00,
0,00000740,false,Rx,0,1,A3,00,00,00,00,00,00,00,
0,00000300,false,Rx,0,6,A1,0F,8A,FF,4A,FF,00,00,
0,00000280,false,Rx,0,8,B3,8D,00,00,23,FA,1A,23,
0,00000288,false,Rx,0,8,8A,5B,D5,00,00,6B,56,8C,
0,00000380,false,Rx,0,8,B0,80,00,76,20,00,00,FE,
0,00000488,false,Rx,0,8,1F,23,00,72,FE,FF,FF,B0,
0,00000280,false,Rx,0,8,B3,8D,00,00,23,FA,1A,23,
0,00000288,false,Rx,0,8,E8,5B,D5,00,00,6B,56,8C,
0,00000380,false,Rx,0,8,B0,80,00,76,20,00,00,FE,
0,00000488,false,Rx,0,8,6F,23,00,72,FE,FF,FF,C0,
0,00000480,false,Rx,0,8,C2,2C,00,00,19,41,00,B6,
0,00000284,false,Rx,0,6,0F,0F,00,00,00,00,00,00,
0,00000588,false,Rx,0,8,0B,00,72,00,00,80,00,00,
0,00000280,false,Rx,0,8,B3,8D,00,00,23,FA,1A,23,
0,00000288,false,Rx,0,8,E8,5B,D5,00,00,6B,56,8C,
