Time Stamp,ID,Extended,Dir,Bus,LEN,D1,D2,D3,D4,D5,D6,D7,D8
0,00000380,false,Rx,0,8,B0,80,00,76,20,00,00,FE,
0,00000380,false,Rx,0,8,B0,80,00,76,20,00,00,FE,
0,00000588,false,Rx,0,8,0B,00,72,00,00,80,00,00,
0,00000380,false,Rx,0,8,B0,80,00,76,20,00,00,FE,
0,00000380,false,Rx,0,8,B0,80,00,76,20,00,00,FE,
160000,00000588,false,Rx,0,8,0B,00,72,00,00,80,00,00,
0,00000380,false,Rx,0,8,B0,80,00,76,20,00,00,FE,
0,00000380,false,Rx,0,8,B0,80,00,76,20,00,00,FE,
0,00000588,false,Rx,0,8,0B,00,72,00,00,80,00,00,
0,00000380,false,Rx,0,8,B0,80,00,76,20,00,00,FE,
0,00000380,false,Rx,0,8,B0,80,00,76,20,00,00,FE,
0,00000588,false,Rx,0,8,0B,00,72,00,00,80,00,00,
0,00000380,false,Rx,0,8,B0,80,00,76,20,00,00,FE,
0,00000380,false,Rx,0,8,B0,80,00,76,20,00,00,FE,
0,00000588,false,Rx,0,8,0B,00,72,00,00,80,00,00,
0,00000380,false,Rx,0,8,B0,80,00,76,20,00,00,FE,
0,00000380,false,Rx,0,8,B0,80,00,76,20,00,00,FE,
0,00000588,false,Rx,0,8,0B,00,72,00,00,80,00,00,
0,00000380,false,Rx,0,8,B0,80,00,76,20,00,00,FE,
0,00000380,false,Rx,0,8,B0,80,00,76,20,00,00,FE,
0,00000588,false,Rx,0,8,0B,00,72,00,00,80,00,00,
0,00000380,false,Rx,0,8,B0,80,00,76,20,00,00,FE,
0,00000380,false,Rx,0,8,B0,80,00,76,20,00,00,FE,
0,00000588,false,Rx,0,8,0B,00,72,00,00,80,00,00,
0,00000380,false,Rx,0,8,B0,80,00,76,20,00,00,FE,
0,00000380,false,Rx,0,8,B0,80,00,76,20,00,00,FE,
0,00000284,false,Rx,0,6,0D,0D,00,00,00,00,00,00,
0,00000380,false,Rx,0,8,B0,80,00,76,20,00,00,FE,
0,00000380,false,Rx,0,8,B0,80,00,76,20,00,00,FE,
0,00000588,false,Rx,0,8,0B,00,72,00,00,80,00,00,
0,00000380,false,Rx,0,8,B0,80,00,76,20,00,00,FE,
0,00000380,false,Rx,0,8,B0,80,00,76,20,00,00,FE,
0,00000284,false,Rx,0,6,0F,0F,00,00,00,00,00,00,
0,00000380,false,Rx,0,8,B0,80,00,76,20,00,00,FE,
0,00000380,false,Rx,0,8,B0,80,00,76,20,00,00,FE,
0,00000588,false,Rx,0,8,0B,00,72,00,00,80,00,00,
0,00000380,false,Rx,0,8,B0,80,00,76,20,00,00,FE,
0,00000380,false,Rx,0,8,B0,80,00,76,20,00,00,FE,
0,00000284,false,Rx,0,6,01,01,00,00,00,00,00,00,
0,00000380,false,Rx,0,8,B0,80,00,76,20,00,00,FE,
0,00000380,false,Rx,0,8,B0,80,00,76,20,00,00,FE,
0,00000284,false,Rx,0,6,02,02,00,00,00,00,00,00,
0,00000380,false,Rx,0,8,B0,80,00,76,20,00,00,FE,
0,00000380,false,Rx,0,8,B0,80,00,76,20,00,00,FE,
0,00000284,false,Rx,0,6,03,03,00,00,00,00,00,00,
0,00000380,false,Rx,0,8,B0,80,00,76,20,00,00,FE,
0,00000380,false,Rx,0,8,B0,80,00,76,20,00,00,FE,
0,00000284,false,Rx,0,6,04,04,00,00,00,00,00,00,
0,00000380,false,Rx,0,8,B0,80,00,76,20,00,00,FE,
0,00000380,false,Rx,0,8,B0,80,00,76,20,00,00,FE,
0,00000284,false,Rx,0,6,05,05,00,00,00,00,00,00,
0,00000380,false,Rx,0,8,B0,80,00,76,20,00,00,FE,
0,00000380,false,Rx,0,8,B0,80,00,76,20,00,00,FE,
0,00000284,false,Rx,0,6,06,06,00,00,00,00,00,00,
0,00000380,false,Rx,0,8,B0,80,00,76,20,00,00,FE,
0,00000380,false,Rx,0,8,B0,80,00,76,20,00,00,FE,
0,00000284,false,Rx,0,6,07,07,00,00,00,00,00,00,
0,00000380,false,Rx,0,8,B0,80,00,76,20,00,00,FE,
0,00000380,false,Rx,0,8,B0,80,00,76,20,00,00,FE,
0,00000284,false,Rx,0,6,08,08,00,00,00,00,00,00,
0,00000380,false,Rx,0,8,B0,80,00,76,20,00,00,FE,
0,00000380,false,Rx,0,8,B0,80,00,76,20,00,00,FE,
0,00000284,false,Rx,0,6,09,09,00,00,00,00,00,00,
0,00000380,false,Rx,0,8,B0,80,00,76,20,00,00,FE,
0,00000380,false,Rx,0,8,B0,80,00,76,20,00,00,FE,
0,00000284,false,Rx,0,6,0A,0A,00,00,00,00,00,00,
0,00000380,false,Rx,0,8,B0,80,00,76,20,00,00,FE,
0,00000380,false,Rx,0,8,B0,80,00,76,20,00,00,FE,
0,00000284,false,Rx,0,6,0B,0B,00,00,00,00,00,00,
0,00000380,false,Rx,0,8,B0,80,00,76,20,00,00,FE,
0,00000380,false,Rx,0,8,B0,80,00,76,20,00,00,FE,
0,00000284,false,Rx,0,6,0C,0C,00,00,00,00,00,00,
0,00000380,false,Rx,0,8,B0,80,00,76,20,00,00,FE,
0,00000380,false,Rx,0,8,B0,80,00,76,20,00,00,FE,
0,00000284,false,Rx,0,6,0D,0D,00,00,00,00,00,00,
0,00000380,false,Rx,0,8,B0,80,00,76,20,00,00,FE,
0,00000380,false,Rx,0,8,B0,80,00,76,20,00,00,FE,
0,00000284,false,Rx,0,6,0E,0E,00,00,00,00,00,00,
0,00000380,false,Rx,0,8,B0,80,00,76,20,00,00,FE,
0,00000380,false,Rx,0,8,B0,80,00,76,20,00,00,FE,
0,00000284,false,Rx,0,6,0F,0F,00,00,00,00,00,00,
0,00000380,false,Rx,0,8,B0,80,00,76,20,00,00,FE,
0,00000380,false,Rx,0,8,B0,80,00,76,20,00,00,FE,
0,00000284,false,Rx,0,6,00,00,00,00,00,00,00,00,
0,00000380,false,Rx,0,8,B0,80,00,76,20,00,00,FE,
0,00000380,false,Rx,0,8,B0,80,00,76,20,00,00,FE,
0,00000284,false,Rx,0,6,01,01,00,00,00,00,00,00,
0,00000380,false,Rx,0,8,B0,80,00,76,20,00,00,FE,
0,00000380,false,Rx,0,8,B0,80,00,76,20,00,00,FE,
0,00000284,false,Rx,0,6,02,02,00,00,00,00,00,00,
0,00000380,false,Rx,0,8,B0,80,00,76,20,00,00,FE,
0,00000380,false,Rx,0,8,B0,80,00,76,20,00,00,FE,
0,00000588,false,Rx,0,8,0B,00,72,00,00,80,00,00,
0,00000380,false,Rx,0,8,B0,80,00,76,20,00,00,FE,
0,00000380,false,Rx,0,8,B0,80,00,76,20,00,00,FE,
0,00000284,false,Rx,0,6,04,04,00,00,00,00,00,00,
0,00000380,false,Rx,0,8,B0,80,00,76,20,00,00,FE,
0,00000380,false,Rx,0,8,B0,80,00,76,20,00,00,FE,
0,00000284,false,Rx,0,6,05,05,00,00,00,00,00,00,
0,00000380,false,Rx,0,8,B0,80,00,76,20,00,00,FE,
0,00000380,false,Rx,0,8,B0,80,00,76,20,00,00,FE,
0,00000284,false,Rx,0,6,06,06,00,00,00,00,00,00,
0,00000380,false,Rx,0,8,B0,80,00,76,20,00,00,FE,
0,00000380,false,Rx,0,8,B0,80,00,76,20,00,00,FE,
0,00000284,false,Rx,0,6,07,07,00,00,00,00,00,00,
0,00000380,false,Rx,0,8,B0,80,00,76,20,00,00,FE,
0,00000380,false,Rx,0,8,B0,80,00,76,20,00,00,FE,
0,00000284,false,Rx,0,6,08,08,00,00,00,00,00,00,
0,00000380,false,Rx,0,8,B0,80,00,76,20,00,00,FE,
0,00000380,false,Rx,0,8,B0,80,00,76,20,00,00,FE,
0,00000284,false,Rx,0,6,09,09,00,00,00,00,00,00,
0,00000380,false,Rx,0,8,B0,80,00,76,20,00,00,FE,
0,00000380,false,Rx,0,8,B0,80,00,76,20,00,00,FE,
0,00000284,false,Rx,0,6,0A,0A,00,00,00,00,00,00,
0,00000380,false,Rx,0,8,B0,80,00,76,20,00,00,FE,
0,00000380,false,Rx,0,8,B0,80,00,76,20,00,00,FE,
0,00000284,false,Rx,0,6,0B,0B,00,00,00,00,00,00,
0,00000380,false,Rx,0,8,B0,80,00,76,20,00,00,FE,
0,00000380,false,Rx,0,8,B0,80,00,76,20,00,00,FE,
0,00000284,false,Rx,0,6,0C,0C,00,00,00,00,00,00,
0,00000380,false,Rx,0,8,B0,80,00,76,20,00,00,FE,
0,00000380,false,Rx,0,8,B0,80,00,76,20,00,00,FE,
0,00000284,false,Rx,0,6,0D,0D,00,00,00,00,00,00,
0,00000380,false,Rx,0,8,B0,80,00,76,20,00,00,FE,
0,00000380,false,Rx,0,8,B0,80,00,76,20,00,00,FE,
0,00000284,false,Rx,0,6,0E,0E,00,00,00,00,00,00,
0,00000380,false,Rx,0,8,B0,80,00,76,20,00,00,FE,
0,00000380,false,Rx,0,8,B0,80,00,76,20,00,00,FE,
0,00000588,false,Rx,0,8,0B,00,72,00,00,80,00,00,
0,00000380,false,Rx,0,8,B0,80,00,76,20,00,00,FE,
0,00000380,false,Rx,0,8,B0,80,00,76,20,00,00,FE,
0,00000284,false,Rx,0,6,00,00,00,00,00,00,00,00,
0,00000380,false,Rx,0,8,B0,80,00,76,20,00,00,FE,
0,00000380,false,Rx,0,8,B0,80,00,76,20,00,00,FE,
0,00000284,false,Rx,0,6,01,01,00,00,00,00,00,00,
0,00000380,false,Rx,0,8,B0,80,00,76,20,00,00,FE,
0,00000380,false,Rx,0,8,B0,80,00,76,20,00,00,FE,
0,00000284,false,Rx,0,6,02,02,00,00,00,00,00,00,
0,00000380,false,Rx,0,8,B0,80,00,76,20,00,00,FE,
0,00000380,false,Rx,0,8,B0,80,00,76,20,00,00,FE,
0,00000284,false,Rx,0,6,03,03,00,00,00,00,00,00,
0,00000380,false,Rx,0,8,B0,80,00,76,20,00,00,FE,
0,00000380,false,Rx,0,8,B0,80,00,76,20,00,00,FE,
0,00000284,false,Rx,0,6,04,04,00,00,00,00,00,00,
0,00000380,false,Rx,0,8,B0,80,00,76,20,00,00,FE,
0,00000380,false,Rx,0,8,B0,80,00,76,20,00,00,FE,
0,00000284,false,Rx,0,6,05,05,00,00,00,00,00,00,
0,00000380,false,Rx,0,8,B0,80,00,76,20,00,00,FE,
0,00000380,false,Rx,0,8,B0,80,00,76,20,00,00,FE,
0,00000284,false,Rx,0,6,06,06,00,00,00,00,00,00,
0,00000380,false,Rx,0,8,B0,80,00,76,20,00,00,FE,
0,00000380,false,Rx,0,8,B0,80,00,76,20,00,00,FE,
0,00000284,false,Rx,0,6,07,07,00,00,00,00,00,00,
0,00000380,false,Rx,0,8,B0,80,00,76,20,00,00,FE,
0,00000380,false,Rx,0,8,B0,80,00,76,20,00,00,FE,
0,00000284,false,Rx,0,6,08,08,00,00,00,00,00,00,
0,00000380,false,Rx,0,8,B0,80,00,76,20,00,00,FE,
0,00000380,false,Rx,0,8,B0,80,00,76,20,00,00,FE,
0,00000588,false,Rx,0,8,0B,00,72,00,00,80,00,00,
0,00000380,false,Rx,0,8,B0,80,00,76,20,00,00,FE,
0,00000380,false,Rx,0,8,B0,80,00,76,20,00,00,FE,
0,00000284,false,Rx,0,6,0A,0A,00,00,00,00,00,00,
0,00000380,false,Rx,0,8,B0,80,00,76,20,00,00,FE,
0,00000380,false,Rx,0,8,B0,80,00,76,20,00,00,FE,
0,00000588,false,Rx,0,8,0B,00,72,00,00,80,00,00,
0,00000380,false,Rx,0,8,B0,80,00,76,20,00,00,FE,
0,00000380,false,Rx,0,8,B0,80,00,76,20,00,00,FE,
0,00000284,false,Rx,0,6,0C,0C,00,00,00,00,00,00,
0,00000380,false,Rx,0,8,B0,80,00,76,20,00,00,FE,
0,00000380,false,Rx,0,8,B0,80,00,76,20,00,00,FE,
0,00000588,false,Rx,0,8,0B,00,72,00,00,80,00,00,
0,00000380,false,Rx,0,8,B0,80,00,76,20,00,00,FE,
0,00000380,false,Rx,0,8,B0,80,00,76,20,00,00,FE,
0,00000284,false,Rx,0,6,0E,0E,00,00,00,00,00,00,
0,00000380,false,Rx,0,8,B0,80,00,76,20,00,00,FE,
0,00000380,false,Rx,0,8,B0,80,00,76,20,00,00,FE,
0,00000588,false,Rx,0,8,0B,00,72,00,00,80,00,00,
0,00000380,false,Rx,0,8,B0,80,00,76,20,00,00,FE,
0,00000380,false,Rx,0,8,B0,80,00,76,20,00,00,FE,
0,00000588,false,Rx,0,8,0B,00,72,00,00,80,00,00,
0,00000380,false,Rx,0,8,B0,80,00,76,20,00,00,FE,
0,00000380,false,Rx,0,8,B0,80,00,76,20,00,00,FE,
344000,00000588,false,Rx,0,8,0B,00,72,00,00,80,00,00,
0,00000380,false,Rx,0,8,B0,80,00,76,20,00,00,FE,
0,00000380,false,Rx,0,8,B0,80,00,76,20,00,00,FE,
0,00000588,false,Rx,0,8,0B,00,72,00,00,80,00,00,
0,00000380,false,Rx,0,8,B0,80,00,76,20,00,00,FE,
0,00000380,false,Rx,0,8,B0,80,00,76,20,00,00,FE,
0,00000588,false,Rx,0,8,0B,00,72,00,00,80,00,00,
0,00000380,false,Rx,0,8,B0,80,00,76,20,00,00,FE,
0,00000380,false,Rx,0,8,B0,80,00,76,20,00,00,FE,
0,00000588,false,Rx,0,8,0B,00,72,00,00,80,00,00,
0,00000380,false,Rx,0,8,B0,80,00,76,20,00,00,FE,
0,00000380,false,Rx,0,8,B0,80,00,76,20,00,00,FE,
0,00000588,false,Rx,0,8,0B,00,72,00,00,80,00,00,
0,00000380,false,Rx,0,8,B0,80,00,76,20,00,00,FE,
0,00000380,false,Rx,0,8,B0,80,00,76,20,00,00,FE,
0,00000588,false,Rx,0,8,0B,00,72,00,00,80,00,00,
0,00000380,false,Rx,0,8,B0,80,00,76,20,00,00,FE,
0,00000380,false,Rx,0,8,B0,80,00,76,20,00,00,FE,
0,00000588,false,Rx,0,8,0B,00,72,00,00,80,00,00,
0,00000380,false,Rx,0,8,B0,80,00,76,20,00,00,FE,
0,00000380,false,Rx,0,8,B0,80,00,76,20,00,00,FE,
487000,00000588,false,Rx,0,8,0B,00,72,00,00,80,00,00,
0,00000380,false,Rx,0,8,B0,80,00,76,20,00,00,FE,
0,00000380,false,Rx,0,8,B0,80,00,76,20,00,00,FE,
0,00000588,false,Rx,0,8,0B,00,72,00,00,80,00,00,
0,00000380,false,Rx,0,8,B0,80,00,76,20,00,00,FE,
0,00000380,false,Rx,0,8,B0,80,00,76,20,00,00,FE,
524000,00000588,false,Rx,0,8,0B,00,72,00,00,80,00,00,
0,00000380,false,Rx,0,8,B0,80,00,76,20,00,00,FE,
0,00000380,false,Rx,0,8,B0,80,00,76,20,00,00,FE,
0,00000588,false,Rx,0,8,0B,00,72,00,00,80,00,00,
0,00000380,false,Rx,0,8,B0,80,00,76,20,00,00,FE,
0,00000380,false,Rx,0,8,B0,80,00,76,20,00,00,FE,
0,00000588,false,Rx,0,8,0B,00,72,00,00,80,00,00,
0,00000380,false,Rx,0,8,B0,80,00,76,20,00,00,FE,
0,00000380,false,Rx,0,8,B0,80,00,76,20,00,00,FE,
0,00000588,false,Rx,0,8,0B,00,72,00,00,80,00,00,
0,00000380,false,Rx,0,8,B0,80,00,76,20,00,00,FE,
0,00000380,false,Rx,0,8,B0,80,00,76,20,00,00,FE,
0,00000588,false,Rx,0,8,0B,00,72,00,00,80,00,00,
0,00000380,false,Rx,0,8,B0,80,00,76,20,00,00,FE,
0,00000380,false,Rx,0,8,B0,80,00,76,20,00,00,FE,
0,00000588,false,Rx,0,8,0B,00,72,00,00,80,00,00,
0,00000380,false,Rx,0,8,B0,80,00,76,20,00,00,FE,
0,00000380,false,Rx,0,8,B0,80,00,76,20,00,00,FE,
0,00000588,false,Rx,0,8,0B,00,72,00,00,80,00,00,
0,00000380,false,Rx,0,8,B0,80,00,76,20,00,00,FE,
0,00000380,false,Rx,0,8,B0,80,00,76,20,00,00,FE,
668000,00000588,false,Rx,0,8,0B,00,72,00,00,80,00,00,
0,00000380,false,Rx,0,8,B0,80,00,76,20,00,00,FE,
0,00000380,false,Rx,0,8,B0,80,00,76,20,00,00,FE,
0,00000588,false,Rx,0,8,0B,00,72,00,00,80,00,00,
0,00000380,false,Rx,0,8,B0,80,00,76,20,00,00,FE,
0,00000380,false,Rx,0,8,B0,80,00,76,20,00,00,FE,
704000,00000588,false,Rx,0,8,0B,00,72,00,00,80,00,00,
0,00000380,false,Rx,0,8,B0,80,00,76,20,00,00,FE,
0,00000380,false,Rx,0,8,B0,80,00,76,20,00,00,FE,
0,00000588,false,Rx,0,8,0B,00,72,00,00,80,00,00,
0,00000380,false,Rx,0,8,B0,80,00,76,20,00,00,FE,
0,00000380,false,Rx,0,8,B0,80,00,76,20,00,00,FE,
0,00000588,false,Rx,0,8,0B,00,72,00,00,80,00,00,
0,00000380,false,Rx,0,8,B0,80,00,76,20,00,00,FE,
0,00000380,false,Rx,0,8,B0,80,00,76,20,00,00,FE,
0,00000588,false,Rx,0,8,0B,00,72,00,00,80,00,00,
0,00000380,false,Rx,0,8,B0,80,00,76,20,00,00,FE,
0,00000380,false,Rx,0,8,B0,80,00,76,20,00,00,FE,
0,00000588,false,Rx,0,8,0B,00,72,00,00,80,00,00,
0,00000380,false,Rx,0,8,B0,80,00,76,20,00,00,FE,
0,00000380,false,Rx,0,8,B0,80,00,76,20,00,00,FE,
0,00000588,false,Rx,0,8,0B,00,72,00,00,80,00,00,
0,00000380,false,Rx,0,8,B0,80,00,76,20,00,00,FE,
0,00000380,false,Rx,0,8,B0,80,00,76,20,00,00,FE,
0,00000588,false,Rx,0,8,0B,00,72,00,00,80,00,00,
0,00000380,false,Rx,0,8,B0,80,00,76,20,00,00,FE,
0,00000380,false,Rx,0,8,B0,80,00,76,20,00,00,FE,
0,00000588,false,Rx,0,8,0B,00,72,00,00,80,00,00,
0,00000380,false,Rx,0,8,B0,80,00,76,20,00,00,FE,
0,00000380,false,Rx,0,8,B0,80,00,76,20,00,00,FE,
868000,00000588,false,Rx,0,8,0B,00,72,00,00,80,00,00,
0,00000380,false,Rx,0,8,B0,80,00,76,20,00,00,FE,
0,00000380,false,Rx,0,8,B0,80,00,76,20,00,00,FE,
0,00000588,false,Rx,0,8,0B,00,72,00,00,80,00,00,
0,00000380,false,Rx,0,8,B0,80,00,76,20,00,00,FE,
0,00000380,false,Rx,0,8,B0,80,00,76,20,00,00,FE,
905000,00000588,false,Rx,0,8,0B,00,72,00,00,80,00,00,
0,00000380,false,Rx,0,8,B0,80,00,76,20,00,00,FE,
0,00000380,false,Rx,0,8,B0,80,00,76,20,00,00,FE,
0,00000588,false,Rx,0,8,0B,00,72,00,00,80,00,00,
0,00000380,false,Rx,0,8,B0,80,00,76,20,00,00,FE,
0,00000380,false,Rx,0,8,B0,80,00,76,20,00,00,FE,
0,00000588,false,Rx,0,8,0B,00,72,00,00,80,00,00,
0,00000380,false,Rx,0,8,B0,80,00,76,20,00,00,FE,
0,00000380,false,Rx,0,8,B0,80,00,76,20,00,00,FE,
0,00000588,false,Rx,0,8,0B,00,72,00,00,80,00,00,
0,00000380,false,Rx,0,8,B0,80,00,76,20,00,00,FE,
0,00000380,false,Rx,0,8,B0,80,00,76,20,00,00,FE,
0,00000588,false,Rx,0,8,0B,00,72,00,00,80,00,00,
0,00000380,false,Rx,0,8,B0,80,00,76,20,00,00,FE,
0,00000380,false,Rx,0,8,B0,80,00,76,20,00,00,FE,
0,00000588,false,Rx,0,8,0B,00,72,00,00,80,00,00,
0,00000380,false,Rx,0,8,B0,80,00,76,20,00,00,FE,
0,00000380,false,Rx,0,8,B0,80,00,76,20,00,00,FE,
0,00000588,false,Rx,0,8,0B,00,72,00,00,80,00,00,
0,00000380,false,Rx,0,8,B0,80,00,76,20,00,00,FE,
0,00000380,false,Rx,0,8,B0,80,00,76,20,00,00,FE,
49000,00000588,false,Rx,0,8,0B,00,72,00,00,80,00,00,
0,00000380,false,Rx,0,8,B0,80,00,76,20,00,00,FE,
0,00000380,false,Rx,0,8,B0,80,00,76,20,00,00,FE,
0,00000588,false,Rx,0,8,0B,00,72,00,00,80,00,00,
0,00000380,false,Rx,0,8,B0,80,00,76,20,00,00,FE,
0,00000380,false,Rx,0,8,B0,80,00,76,20,00,00,FE,
85000,00000588,false,Rx,0,8,0B,00,72,00,00,80,00,00,
0,00000380,false,Rx,0,8,B0,80,00,76,20,00,00,FE,
0,00000380,false,Rx,0,8,B0,80,00,76,20,00,00,FE,
0,00000588,false,Rx,0,8,0B,00,72,00,00,80,00,00,
0,00000380,false,Rx,0,8,B0,80,00,76,20,00,00,FE,
0,00000380,false,Rx,0,8,B0,80,00,76,20,00,00,FE,
0,00000588,false,Rx,0,8,0B,00,72,00,00,80,00,00,
0,00000380,false,Rx,0,8,B0,80,00,76,20,00,00,FE,
0,00000380,false,Rx,0,8,B0,80,00,76,20,00,00,FE,
0,00000588,false,Rx,0,8,0B,00,72,00,00,80,00,00,
0,00000380,false,Rx,0,8,B0,80,00,76,20,00,00,FE,
0,00000380,false,Rx,0,8,B0,80,00,76,20,00,00,FE,
0,00000588,false,Rx,0,8,0B,00,72,00,00,80,00,00,
0,00000380,false,Rx,0,8,B0,80,00,76,20,00,00,FE,
0,00000380,false,Rx,0,8,B0,80,00,76,20,00,00,FE,
0,00000588,false,Rx,0,8,0B,00,72,00,00,80,00,00,
0,00000380,false,Rx,0,8,B0,80,00,76,20,00,00,FE,
0,00000380,false,Rx,0,8,B0,80,00,76,20,00,00,FE,
0,00000588,false,Rx,0,8,0B,00,72,00,00,80,00,00,
0,00000380,false,Rx,0,8,B0,80,00,76,20,00,00,FE,
0,00000380,false,Rx,0,8,B0,80,00,76,20,00,00,FE,
229000,00000588,false,Rx,0,8,0B,00,72,00,00,80,00,00,
0,00000380,false,Rx,0,8,B0,80,00,76,20,00,00,FE,
0,00000380,false,Rx,0,8,B0,80,00,76,20,00,00,FE,
0,00000588,false,Rx,0,8,0B,00,72,00,00,80,00,00,
0,00000380,false,Rx,0,8,B0,80,00,76,20,00,00,FE,
0,00000380,false,Rx,0,8,B0,80,00,76,20,00,00,FE,
0,00000588,false,Rx,0,8,0B,00,72,00,00,80,00,00,
0,00000380,false,Rx,0,8,B0,80,00,76,20,00,00,FE,
0,00000380,false,Rx,0,8,B0,80,00,76,20,00,00,FE,
286000,00000588,false,Rx,0,8,0B,00,72,00,00,80,00,00,
0,00000380,false,Rx,0,8,B0,80,00,76,20,00,00,FE,
0,00000380,false,Rx,0,8,B0,80,00,76,20,00,00,FE,
0,00000588,false,Rx,0,8,0B,00,72,00,00,80,00,00,
0,00000380,false,Rx,0,8,B0,80,00,76,20,00,00,FE,
0,00000380,false,Rx,0,8,B0,80,00,76,20,00,00,FE,
0,00000588,false,Rx,0,8,0B,00,72,00,00,80,00,00,
0,00000380,false,Rx,0,8,B0,80,00,76,20,00,00,FE,
0,00000380,false,Rx,0,8,B0,80,00,76,20,00,00,FE,
0,00000588,false,Rx,0,8,0B,00,72,00,00,80,00,00,
0,00000380,false,Rx,0,8,B0,80,00,76,20,00,00,FE,
0,00000380,false,Rx,0,8,B0,80,00,76,20,00,00,FE,
0,00000588,false,Rx,0,8,0B,00,72,00,00,80,00,00,
0,00000380,false,Rx,0,8,B0,80,00,76,20,00,00,FE,
0,00000380,false,Rx,0,8,B0,80,00,76,20,00,00,FE,
0,00000588,false,Rx,0,8,0B,00,72,00,00,80,00,00,
0,00000380,false,Rx,0,8,B0,80,00,76,20,00,00,FE,
0,00000380,false,Rx,0,8,B0,80,00,76,20,00,00,FE,
0,00000588,false,Rx,0,8,0B,00,72,00,00,80,00,00,
0,00000380,false,Rx,0,8,B0,80,00,76,20,00,00,FE,
0,00000380,false,Rx,0,8,B0,80,00,76,20,00,00,FE,
429000,00000588,false,Rx,0,8,0B,00,72,00,00,80,00,00,
0,00000380,false,Rx,0,8,B0,80,00,76,20,00,00,FE,
0,00000380,false,Rx,0,8,B0,80,00,76,20,00,00,FE,
0,00000588,false,Rx,0,8,0B,00,72,00,00,80,00,00,
0,00000380,false,Rx,0,8,B0,80,00,76,20,00,00,FE,
0,00000380,false,Rx,0,8,B0,80,00,76,20,00,00,FE,
466000,00000588,false,Rx,0,8,0B,00,72,00,00,80,00,00,
0,00000380,false,Rx,0,8,B0,80,00,76,20,00,00,FE,
0,00000380,false,Rx,0,8,B0,80,00,76,20,00,00,FE,
0,00000588,false,Rx,0,8,0B,00,72,00,00,80,00,00,
0,00000380,false,Rx,0,8,B0,80,00,76,20,00,00,FE,
0,00000380,false,Rx,0,8,B0,80,00,76,20,00,00,FE,
0,00000588,false,Rx,0,8,0B,00,72,00,00,80,00,00,
0,00000380,false,Rx,0,8,B0,80,00,76,20,00,00,FE,
0,00000380,false,Rx,0,8,B0,80,00,76,20,00,00,FE,
0,00000588,false,Rx,0,8,0B,00,72,00,00,80,00,00,
0,00000380,false,Rx,0,8,B0,80,00,76,20,00,00,FE,
0,00000380,false,Rx,0,8,B0,80,00,76,20,00,00,FE,
0,00000588,false,Rx,0,8,0B,00,72,00,00,80,00,00,
0,00000380,false,Rx,0,8,B0,80,00,76,20,00,00,FE,
0,00000380,false,Rx,0,8,B0,80,00,76,20,00,00,FE,
0,00000588,false,Rx,0,8,0B,00,72,00,00,80,00,00,
0,00000380,false,Rx,0,8,B0,80,00,76,20,00,00,FE,
0,00000380,false,Rx,0,8,B0,80,00,76,20,00,00,FE,
0,00000588,false,Rx,0,8,0B,00,72,00,00,80,00,00,
0,00000380,false,Rx,0,8,B0,80,00,76,20,00,00,FE,
0,00000380,false,Rx,0,8,B0,80,00,76,20,00,00,FE,
610000,00000588,false,Rx,0,8,0B,00,72,00,00,80,00,00,
0,00000380,false,Rx,0,8,B0,80,00,76,20,00,00,FE,
0,00000380,false,Rx,0,8,B0,80,00,76,20,00,00,FE,
0,00000588,false,Rx,0,8,0B,00,72,00,00,80,00,00,
0,00000380,false,Rx,0,8,B0,80,00,76,20,00,00,FE,
0,00000380,false,Rx,0,8,B0,80,00,76,20,00,00,FE,
646000,00000588,false,Rx,0,8,0B,00,72,00,00,80,00,00,
0,00000380,false,Rx,0,8,B0,80,00,76,20,00,00,FE,
0,00000380,false,Rx,0,8,B0,80,00,76,20,00,00,FE,
667000,00000588,false,Rx,0,8,0B,00,72,00,00,80,00,00,
0,00000380,false,Rx,0,8,B0,80,00,76,20,00,00,FE,
0,00000380,false,Rx,0,8,B0,80,00,76,20,00,00,FE,
0,00000588,false,Rx,0,8,0B,00,72,00,00,80,00,00,
0,00000380,false,Rx,0,8,B0,80,00,76,20,00,00,FE,
0,00000380,false,Rx,0,8,B0,80,00,76,20,00,00,FE,
0,00000588,false,Rx,0,8,0B,00,72,00,00,80,00,00,
0,00000380,false,Rx,0,8,B0,80,00,76,20,00,00,FE,
0,00000380,false,Rx,0,8,B0,80,00,76,20,00,00,FE,
0,00000588,false,Rx,0,8,0B,00,72,00,00,80,00,00,
0,00000380,false,Rx,0,8,B0,80,00,76,20,00,00,FE,
0,00000380,false,Rx,0,8,B0,80,00,76,20,00,00,FE,
0,00000588,false,Rx,0,8,0B,00,72,00,00,80,00,00,
0,00000380,false,Rx,0,8,B0,80,00,76,20,00,00,FE,
0,00000380,false,Rx,0,8,B0,80,00,76,20,00,00,FE,
0,00000588,false,Rx,0,8,0B,00,72,00,00,80,00,00,
0,00000380,false,Rx,0,8,B0,80,00,76,20,00,00,FE,
0,00000380,false,Rx,0,8,B0,80,00,76,20,00,00,FE,
0,00000588,false,Rx,0,8,0B,00,72,00,00,80,00,00,
0,00000380,false,Rx,0,8,B0,80,00,76,20,00,00,FE,
0,00000380,false,Rx,0,8,B0,80,00,76,20,00,00,FE,
810000,00000588,false,Rx,0,8,0B,00,72,00,00,80,00,00,
0,00000380,false,Rx,0,8,B0,80,00,76,20,00,00,FE,
0,00000380,false,Rx,0,8,B0,80,00,76,20,00,00,FE,
0,00000588,false,Rx,0,8,0B,00,72,00,00,80,00,00,
0,00000380,false,Rx,0,8,B0,80,00,76,20,00,00,FE,
0,00000380,false,Rx,0,8,B0,80,00,76,20,00,00,FE,
847000,00000588,false,Rx,0,8,0B,00,72,00,00,80,00,00,
0,00000380,false,Rx,0,8,B0,80,00,76,20,00,00,FE,
0,00000380,false,Rx,0,8,B0,80,00,76,20,00,00,FE,
0,00000588,false,Rx,0,8,0B,00,72,00,00,80,00,00,
0,00000380,false,Rx,0,8,B0,80,00,76,20,00,00,FE,
0,00000380,false,Rx,0,8,B0,80,00,76,20,00,00,FE,
0,00000588,false,Rx,0,8,0B,00,72,00,00,80,00,00,
0,00000380,false,Rx,0,8,B0,80,00,76,20,00,00,FE,
0,00000380,false,Rx,0,8,B0,80,00,76,20,00,00,FE,
0,00000588,false,Rx,0,8,0B,00,72,00,00,80,00,00,
0,00000380,false,Rx,0,8,B0,80,00,76,20,00,00,FE,
0,00000380,false,Rx,0,8,B0,80,00,76,20,00,00,FE,
0,00000588,false,Rx,0,8,0B,00,72,00,00,80,00,00,
0,00000380,false,Rx,0,8,B0,80,00,76,20,00,00,FE,
0,00000380,false,Rx,0,8,B0,80,00,76,20,00,00,FE,
0,00000588,false,Rx,0,8,0B,00,72,00,00,80,00,00,
0,00000380,false,Rx,0,8,B0,80,00,76,20,00,00,FE,
0,00000380,false,Rx,0,8,B0,80,00,76,20,00,00,FE,
0,00000588,false,Rx,0,8,0B,00,72,00,00,80,00,00,
0,00000380,false,Rx,0,8,B0,80,00,76,20,00,00,FE,
0,00000380,false,Rx,0,8,B0,80,00,76,20,00,00,FE,
991000,00000588,false,Rx,0,8,0B,00,72,00,00,80,00,00,
0,00000380,false,Rx,0,8,B0,80,00,76,20,00,00,FE,
0,00000380,false,Rx,0,8,B0,80,00,76,20,00,00,FE,
0,00000588,false,Rx,0,8,0B,00,72,00,00,80,00,00,
0,00000380,false,Rx,0,8,B0,80,00,76,20,00,00,FE,
0,00000380,false,Rx,0,8,B0,80,00,76,20,00,00,FE,
27000,00000588,false,Rx,0,8,0B,00,72,00,00,80,00,00,
0,00000380,false,Rx,0,8,B0,80,00,76,20,00,00,FE,
0,00000380,false,Rx,0,8,B0,80,00,76,20,00,00,FE,
0,00000588,false,Rx,0,8,0B,00,72,00,00,80,00,00,
0,00000380,false,Rx,0,8,B0,80,00,76,20,00,00,FE,
0,00000380,false,Rx,0,8,B0,80,00,76,20,00,00,FE,
0,00000588,false,Rx,0,8,0B,00,72,00,00,80,00,00,
0,00000380,false,Rx,0,8,B0,80,00,76,20,00,00,FE,
0,00000380,false,Rx,0,8,B0,80,00,76,20,00,00,FE,
0,00000588,false,Rx,0,8,0B,00,72,00,00,80,00,00,
0,00000380,false,Rx,0,8,B0,80,00,76,20,00,00,FE,
0,00000380,false,Rx,0,8,B0,80,00,76,20,00,00,FE,
0,00000588,false,Rx,0,8,0B,00,72,00,00,80,00,00,
0,00000380,false,Rx,0,8,B0,80,00,76,20,00,00,FE,
0,00000380,false,Rx,0,8,B0,80,00,76,20,00,00,FE,
0,00000588,false,Rx,0,8,0B,00,72,00,00,80,00,00,
0,00000380,false,Rx,0,8,B0,80,00,76,20,00,00,FE,
0,00000380,false,Rx,0,8,B0,80,00,76,20,00,00,FE,
0,00000588,false,Rx,0,8,0B,00,72,00,00,80,00,00,
0,00000380,false,Rx,0,8,B0,80,00,76,20,00,00,FE,
0,00000380,false,Rx,0,8,B0,80,00,76,20,00,00,FE,
0,00000588,false,Rx,0,8,0B,00,72,00,00,80,00,00,
0,00000380,false,Rx,0,8,B0,80,00,76,20,00,00,FE,
0,00000380,false,Rx,0,8,B0,80,00,76,20,00,00,FE,
0,00000588,false,Rx,0,8,0B,00,72,00,00,80,00,00,
0,00000380,false,Rx,0,8,B0,80,00,76,20,00,00,FE,
0,00000380,false,Rx,0,8,B0,80,00,76,20,00,00,FE,
0,00000588,false,Rx,0,8,0B,00,72,00,00,80,00,00,
0,00000380,false,Rx,0,8,B0,80,00,76,20,00,00,FE,
0,00000380,false,Rx,0,8,B0,80,00,76,20,00,00,FE,
228000,00000588,false,Rx,0,8,0B,00,72,00,00,80,00,00,
0,00000380,false,Rx,0,8,B0,80,00,76,20,00,00,FE,
0,00000380,false,Rx,0,8,B0,80,00,76,20,00,00,FE,
0,00000588,false,Rx,0,8,0B,00,72,00,00,80,00,00,
0,00000380,false,Rx,0,8,B0,80,00,76,20,00,00,FE,
0,00000380,false,Rx,0,8,B0,80,00,76,20,00,00,FE,
0,00000588,false,Rx,0,8,0B,00,72,00,00,80,00,00,
0,00000288,false,Rx,0,8,2C,5B,D5,00,00,6B,57,8C,
0,00000488,false,Rx,0,8,BF,23,00,72,FE,FF,FF,10,
0,00000380,false,Rx,0,8,B0,80,00,76,20,00,00,FE,
0,00000588,false,Rx,0,8,0B,00,72,00,00,80,00,00,
0,00000380,false,Rx,0,8,B0,80,00,76,20,00,00,FE,
0,00000380,false,Rx,0,8,B0,80,00,76,20,00,00,FE,
0,00000588,false,Rx,0,8,0B,00,72,00,00,80,00,00,
0,00000380,false,Rx,0,8,B0,80,00,76,20,00,00,FE,
0,00000380,false,Rx,0,8,B0,80,00,76,20,00,00,FE,
0,00000588,false,Rx,0,8,0B,00,72,00,00,80,00,00,
0,00000380,false,Rx,0,8,B0,80,00,76,20,00,00,FE,
0,00000380,false,Rx,0,8,B0,80,00,76,20,00,00,FE,
0,00000588,false,Rx,0,8,0B,00,72,00,00,80,00,00,
0,00000380,false,Rx,0,8,B0,80,00,76,20,00,00,FE,
0,00000380,false,Rx,0,8,B0,80,00,76,20,00,00,FE,
371000,00000588,false,Rx,0,8,0B,00,72,00,00,80,00,00,
0,00000380,false,Rx,0,8,B0,80,00,76,20,00,00,FE,
0,00000380,false,Rx,0,8,B0,80,00,76,20,00,00,FE,
0,00000588,false,Rx,0,8,0B,00,72,00,00,80,00,00,
0,00000380,false,Rx,0,8,B0,80,00,76,20,00,00,FE,
0,00000380,false,Rx,0,8,B0,80,00,76,20,00,00,FE,
408000,00000588,false,Rx,0,8,0B,00,72,00,00,80,00,00,
0,00000380,false,Rx,0,8,B0,80,00,76,20,00,00,FE,
0,00000380,false,Rx,0,8,B0,80,00,76,20,00,00,FE,
0,00000284,false,Rx,0,6,09,09,00,00,00,00,00,00,
0,00000380,false,Rx,0,8,B0,80,00,76,20,00,00,FE,
0,00000380,false,Rx,0,8,B0,80,00,76,20,00,00,FE,
0,00000588,false,Rx,0,8,0B,00,72,00,00,80,00,00,
0,00000380,false,Rx,0,8,B0,80,00,76,20,00,00,FE,
0,00000380,false,Rx,0,8,B0,80,00,76,20,00,00,FE,
0,00000588,false,Rx,0,8,0B,00,72,00,00,80,00,00,
0,00000380,false,Rx,0,8,B0,80,00,76,20,00,00,FE,
0,00000380,false,Rx,0,8,B0,80,00,76,20,00,00,FE,
0,00000588,false,Rx,0,8,0B,00,72,00,00,80,00,00,
0,00000380,false,Rx,0,8,B0,80,00,76,20,00,00,FE,
