Time Stamp,ID,Extended,Dir,Bus,LEN,D1,D2,D3,D4,D5,D6,D7,D8
0,00000380,false,Rx,0,8,B0,80,00,76,20,00,00,FE,
0,00000380,false,Rx,0,8,B0,80,00,76,20,00,00,FE,
0,00000588,false,Rx,0,8,0B,00,72,00,00,80,00,00,
0,00000380,false,Rx,0,8,B0,80,00,76,20,00,00,FE,
0,00000380,false,Rx,0,8,B0,80,00,76,20,00,00,FE,
0,00000588,false,Rx,0,8,0B,00,72,00,00,80,00,00,
0,00000380,false,Rx,0,8,B0,80,00,76,20,00,00,FE,
0,00000380,false,Rx,0,8,B0,80,00,76,20,00,00,FE,
532000,00000588,false,Rx,0,8,0B,00,72,00,00,80,00,00,
0,00000380,false,Rx,0,8,B0,80,00,76,20,00,00,FE,
0,00000380,false,Rx,0,8,B0,80,00,76,20,00,00,FE,
0,00000588,false,Rx,0,8,0B,00,72,00,00,80,00,00,
0,00000380,false,Rx,0,8,B0,80,00,76,20,00,00,FE,
0,00000380,false,Rx,0,8,B0,80,00,76,20,00,00,FE,
568000,00000588,false,Rx,0,8,0B,00,72,00,00,80,00,00,
0,00000380,false,Rx,0,8,B0,80,00,76,20,00,00,FE,
0,00000380,false,Rx,0,8,B0,80,00,76,20,00,00,FE,
0,00000588,false,Rx,0,8,0B,00,72,00,00,80,00,00,
0,00000380,false,Rx,0,8,B0,80,00,76,20,00,00,FE,
0,00000380,false,Rx,0,8,B0,80,00,76,20,00,00,FE,
0,00000588,false,Rx,0,8,0B,00,72,00,00,80,00,00,
0,00000380,false,Rx,0,8,B0,80,00,76,20,00,00,FE,
0,00000380,false,Rx,0,8,B0,80,00,76,20,00,00,FE,
0,00000588,false,Rx,0,8,0B,00,72,00,00,80,00,00,
0,00000380,false,Rx,0,8,B0,80,00,76,20,00,00,FE,
0,00000380,false,Rx,0,8,B0,80,00,76,20,00,00,FE,
0,00000588,false,Rx,0,8,0B,00,72,00,00,80,00,00,
0,00000380,false,Rx,0,8,B0,80,00,76,20,00,00,FE,
0,00000380,false,Rx,0,8,B0,80,00,76,20,00,00,FE,
0,00000588,false,Rx,0,8,0B,00,72,00,00,80,00,00,
0,00000380,false,Rx,0,8,B0,80,00,76,20,00,00,FE,
0,00000380,false,Rx,0,8,B0,80,00,76,20,00,00,FE,
0,00000588,false,Rx,0,8,0B,00,72,00,00,80,00,00,
0,00000380,false,Rx,0,8,B0,80,00,76,20,00,00,FE,
0,00000380,false,Rx,0,8,B0,80,00,76,20,00,00,FE,
712000,00000588,false,Rx,0,8,0B,00,72,00,00,80,00,00,
0,00000380,false,Rx,0,8,B0,80,00,76,20,00,00,FE,
0,00000380,false,Rx,0,8,B0,80,00,76,20,00,00,FE,
0,00000588,false,Rx,0,8,0B,00,72,00,00,80,00,00,
0,00000380,false,Rx,0,8,B0,80,00,76,20,00,00,FE,
0,00000380,false,Rx,0,8,B0,80,00,76,20,00,00,FE,
749000,00000588,false,Rx,0,8,0B,00,72,00,00,80,00,00,
0,00000380,false,Rx,0,8,B0,80,00,76,20,00,00,FE,
0,00000380,false,Rx,0,8,B0,80,00,76,20,00,00,FE,
0,00000588,false,Rx,0,8,0B,00,72,00,00,80,00,00,
0,00000380,false,Rx,0,8,B0,80,00,76,20,00,00,FE,
0,00000380,false,Rx,0,8,B0,80,00,76,20,00,00,FE,
0,00000588,false,Rx,0,8,0B,00,72,00,00,80,00,00,
0,00000380,false,Rx,0,8,B0,80,00,76,20,00,00,FE,
0,00000380,false,Rx,0,8,B0,80,00,76,20,00,00,FE,
0,00000588,false,Rx,0,8,0B,00,72,00,00,80,00,00,
0,00000380,false,Rx,0,8,B0,80,00,76,20,00,00,FE,
0,00000380,false,Rx,0,8,B0,80,00,76,20,00,00,FE,
0,00000588,false,Rx,0,8,0B,00,72,00,00,80,00,00,
0,00000380,false,Rx,0,8,B0,80,00,76,20,00,00,FE,
0,00000380,false,Rx,0,8,B0,80,00,76,20,00,00,FE,
0,00000588,false,Rx,0,8,0B,00,72,00,00,80,00,00,
0,00000380,false,Rx,0,8,B0,80,00,76,20,00,00,FE,
0,00000380,false,Rx,0,8,B0,80,00,76,20,00,00,FE,
0,00000588,false,Rx,0,8,0B,00,72,00,00,80,00,00,
0,00000380,false,Rx,0,8,B0,80,00,76,20,00,00,FE,
0,00000380,false,Rx,0,8,B0,80,00,76,20,00,00,FE,
892000,00000588,false,Rx,0,8,0B,00,72,00,00,80,00,00,
0,00000380,false,Rx,0,8,B0,80,00,76,20,00,00,FE,
0,00000380,false,Rx,0,8,B0,80,00,76,20,00,00,FE,
0,00000588,false,Rx,0,8,0B,00,72,00,00,80,00,00,
0,00000380,false,Rx,0,8,B0,80,00,76,20,00,00,FE,
0,00000380,false,Rx,0,8,B0,80,00,76,20,00,00,FE,
0,00000588,false,Rx,0,8,0B,00,72,00,00,80,00,00,
0,00000380,false,Rx,0,8,B0,80,00,76,20,00,00,FE,
0,00000380,false,Rx,0,8,B0,80,00,76,20,00,00,FE,
0,00000588,false,Rx,0,8,0B,00,72,00,00,80,00,00,
0,00000380,false,Rx,0,8,B0,80,00,76,20,00,00,FE,
0,00000380,false,Rx,0,8,B0,80,00,76,20,00,00,FE,
0,00000588,false,Rx,0,8,0B,00,72,00,00,80,00,00,
0,00000380,false,Rx,0,8,B0,80,00,76,20,00,00,FE,
0,00000380,false,Rx,0,8,B0,80,00,76,20,00,00,FE,
0,00000588,false,Rx,0,8,0B,00,72,00,00,80,00,00,
0,00000380,false,Rx,0,8,B0,80,00,76,20,00,00,FE,
0,00000380,false,Rx,0,8,B0,80,00,76,20,00,00,FE,
0,00000588,false,Rx,0,8,0B,00,72,00,00,80,00,00,
0,00000380,false,Rx,0,8,B0,80,00,76,20,00,00,FE,
0,00000380,false,Rx,0,8,B0,80,00,76,20,00,00,FE,
0,00000588,false,Rx,0,8,0B,00,72,00,00,80,00,00,
0,00000380,false,Rx,0,8,B0,80,00,76,20,00,00,FE,
0,00000380,false,Rx,0,8,B0,80,00,76,20,00,00,FE,
0,00000588,false,Rx,0,8,0B,00,72,00,00,80,00,00,
0,00000380,false,Rx,0,8,B0,80,00,76,20,00,00,FE,
0,00000380,false,Rx,0,8,B0,80,00,76,20,00,00,FE,
0,00000284,false,Rx,0,6,06,06,00,00,00,00,00,00,
0,00000380,false,Rx,0,8,B0,80,00,76,20,00,00,FE,
0,00000380,false,Rx,0,8,B0,80,00,76,20,00,00,FE,
0,00000284,false,Rx,0,6,07,07,00,00,00,00,00,00,
0,00000380,false,Rx,0,8,B0,80,00,76,20,00,00,FE,
0,00000380,false,Rx,0,8,B0,80,00,76,20,00,00,FE,
0,00000588,false,Rx,0,8,0B,00,72,00,00,80,00,00,
0,00000380,false,Rx,0,8,B0,80,00,76,20,00,00,FE,
0,00000380,false,Rx,0,8,B0,80,00,76,20,00,00,FE,
0,00000284,false,Rx,0,6,09,09,00,00,00,00,00,00,
0,00000380,false,Rx,0,8,B0,80,00,76,20,00,00,FE,
0,00000380,false,Rx,0,8,B0,80,00,76,20,00,00,FE,
0,00000284,false,Rx,0,6,0A,0A,00,00,00,00,00,00,
0,00000380,false,Rx,0,8,B0,80,00,76,20,00,00,FE,
0,00000380,false,Rx,0,8,B0,80,00,76,20,00,00,FE,
0,00000284,false,Rx,0,6,0B,0B,00,00,00,00,00,00,
0,00000380,false,Rx,0,8,B0,80,00,76,20,00,00,FE,
0,00000380,false,Rx,0,8,B0,80,00,76,20,00,00,FE,
0,00000284,false,Rx,0,6,0C,0C,00,00,00,00,00,00,
0,00000380,false,Rx,0,8,B0,80,00,76,20,00,00,FE,
0,00000380,false,Rx,0,8,B0,80,00,76,20,00,00,FE,
0,00000284,false,Rx,0,6,0D,0D,00,00,00,00,00,00,
0,00000380,false,Rx,0,8,B0,80,00,76,20,00,00,FE,
0,00000380,false,Rx,0,8,B0,80,00,76,20,00,00,FE,
0,00000284,false,Rx,0,6,0E,0E,00,00,00,00,00,00,
0,00000380,false,Rx,0,8,B0,80,00,76,20,00,00,FE,
0,00000380,false,Rx,0,8,B0,80,00,76,20,00,00,FE,
0,00000284,false,Rx,0,6,0F,0F,00,00,00,00,00,00,
0,00000380,false,Rx,0,8,B0,80,00,76,20,00,00,FE,
0,00000380,false,Rx,0,8,B0,80,00,76,20,00,00,FE,
0,00000284,false,Rx,0,6,00,00,00,00,00,00,00,00,
0,00000380,false,Rx,0,8,B0,80,00,76,20,00,00,FE,
0,00000380,false,Rx,0,8,B0,80,00,76,20,00,00,FE,
0,00000284,false,Rx,0,6,01,01,00,00,00,00,00,00,
0,00000380,false,Rx,0,8,B0,80,00,76,20,00,00,FE,
0,00000380,false,Rx,0,8,B0,80,00,76,20,00,00,FE,
0,00000284,false,Rx,0,6,02,02,00,00,00,00,00,00,
0,00000380,false,Rx,0,8,B0,80,00,76,20,00,00,FE,
0,00000380,false,Rx,0,8,B0,80,00,76,20,00,00,FE,
0,00000284,false,Rx,0,6,03,03,00,00,00,00,00,00,
0,00000380,false,Rx,0,8,B0,80,00,76,20,00,00,FE,
0,00000380,false,Rx,0,8,B0,80,00,76,20,00,00,FE,
0,00000284,false,Rx,0,6,04,04,00,00,00,00,00,00,
0,00000380,false,Rx,0,8,B0,80,00,76,20,00,00,FE,
0,00000380,false,Rx,0,8,B0,80,00,76,20,00,00,FE,
0,00000284,false,Rx,0,6,05,05,00,00,00,00,00,00,
0,00000380,false,Rx,0,8,B0,80,00,76,20,00,00,FE,
0,00000380,false,Rx,0,8,B0,80,00,76,20,00,00,FE,
0,00000284,false,Rx,0,6,06,06,00,00,00,00,00,00,
0,00000380,false,Rx,0,8,B0,80,00,76,20,00,00,FE,
0,00000380,false,Rx,0,8,B0,80,00,76,20,00,00,FE,
0,00000284,false,Rx,0,6,07,07,00,00,00,00,00,00,
0,00000380,false,Rx,0,8,B0,80,00,76,20,00,00,FE,
0,00000380,false,Rx,0,8,B0,80,00,76,20,00,00,FE,
0,00000284,false,Rx,0,6,08,08,00,00,00,00,00,00,
0,00000380,false,Rx,0,8,B0,80,00,76,20,00,00,FE,
0,00000380,false,Rx,0,8,B0,80,00,76,20,00,00,FE,
0,00000284,false,Rx,0,6,09,09,00,00,00,00,00,00,
0,00000380,false,Rx,0,8,B0,80,00,76,20,00,00,FE,
0,00000380,false,Rx,0,8,B0,80,00,76,20,00,00,FE,
0,00000284,false,Rx,0,6,0A,0A,00,00,00,00,00,00,
0,00000380,false,Rx,0,8,B0,80,00,76,20,00,00,FE,
0,00000380,false,Rx,0,8,B0,80,00,76,20,00,00,FE,
0,00000284,false,Rx,0,6,0B,0B,00,00,00,00,00,00,
0,00000380,false,Rx,0,8,B0,80,00,76,20,00,00,FE,
0,00000380,false,Rx,0,8,B0,80,00,76,20,00,00,FE,
0,00000284,false,Rx,0,6,0C,0C,00,00,00,00,00,00,
0,00000380,false,Rx,0,8,B0,80,00,76,20,00,00,FE,
0,00000380,false,Rx,0,8,B0,80,00,76,20,00,00,FE,
0,00000284,false,Rx,0,6,0D,0D,00,00,00,00,00,00,
0,00000380,false,Rx,0,8,B0,80,00,76,20,00,00,FE,
0,00000380,false,Rx,0,8,B0,80,00,76,20,00,00,FE,
0,00000284,false,Rx,0,6,0E,0E,00,00,00,00,00,00,
0,00000380,false,Rx,0,8,B0,80,00,76,20,00,00,FE,
0,00000380,false,Rx,0,8,B0,80,00,76,20,00,00,FE,
0,00000284,false,Rx,0,6,0F,0F,00,00,00,00,00,00,
0,00000380,false,Rx,0,8,B0,80,00,76,20,00,00,FE,
0,00000380,false,Rx,0,8,B0,80,00,76,20,00,00,FE,
0,00000284,false,Rx,0,6,00,00,00,00,00,00,00,00,
0,00000380,false,Rx,0,8,B0,80,00,76,20,00,00,FE,
0,00000380,false,Rx,0,8,B0,80,00,76,20,00,00,FE,
0,00000284,false,Rx,0,6,01,01,00,00,00,00,00,00,
0,00000380,false,Rx,0,8,B0,80,00,76,20,00,00,FE,
0,00000380,false,Rx,0,8,B0,80,00,76,20,00,00,FE,
0,00000284,false,Rx,0,6,02,02,00,00,00,00,00,00,
0,00000380,false,Rx,0,8,B0,80,00,76,20,00,00,FE,
0,00000380,false,Rx,0,8,B0,80,00,76,20,00,00,FE,
0,00000284,false,Rx,0,6,03,03,00,00,00,00,00,00,
0,00000380,false,Rx,0,8,B0,80,00,76,20,00,00,FE,
0,00000380,false,Rx,0,8,B0,80,00,76,20,00,00,FE,
0,00000284,false,Rx,0,6,04,04,00,00,00,00,00,00,
0,00000380,false,Rx,0,8,B0,80,00,76,20,00,00,FE,
0,00000380,false,Rx,0,8,B0,80,00,76,20,00,00,FE,
0,00000284,false,Rx,0,6,05,05,00,00,00,00,00,00,
0,00000380,false,Rx,0,8,B0,80,00,76,20,00,00,FE,
0,00000380,false,Rx,0,8,B0,80,00,76,20,00,00,FE,
0,00000284,false,Rx,0,6,06,06,00,00,00,00,00,00,
0,00000380,false,Rx,0,8,B0,80,00,76,20,00,00,FE,
0,00000380,false,Rx,0,8,B0,80,00,76,20,00,00,FE,
0,00000284,false,Rx,0,6,07,07,00,00,00,00,00,00,
0,00000380,false,Rx,0,8,B0,80,00,76,20,00,00,FE,
0,00000380,false,Rx,0,8,B0,80,00,76,20,00,00,FE,
0,00000284,false,Rx,0,6,08,08,00,00,00,00,00,00,
0,00000380,false,Rx,0,8,B0,80,00,76,20,00,00,FE,
0,00000380,false,Rx,0,8,B0,80,00,76,20,00,00,FE,
0,00000488,false,Rx,0,8,50,23,00,72,FE,FF,00,00,
773000,00000284,false,Rx,0,6,09,09,00,00,00,00,00,00,
0,00000300,false,Rx,0,6,1D,00,03,7F,61,11,00,00,
0,00000380,false,Rx,0,8,B0,80,00,76,20,00,00,FE,
0,00000588,false,Rx,0,8,0B,00,72,00,00,80,00,00,
0,00000300,false,Rx,0,1,B5,00,00,00,00,00,00,00,
0,00000488,false,Rx,0,8,60,23,00,72,FE,FF,00,30,
0,00000380,false,Rx,0,8,B0,80,00,76,20,00,00,FE,
0,00000284,false,Rx,0,6,0B,0B,00,00,00,00,00,00,
0,00000380,false,Rx,0,8,B0,80,00,76,20,00,00,FE,
0,00000300,false,Rx,0,8,22,31,2E,30,36,2E,30,36,
0,00000284,false,Rx,0,6,0C,0C,00,00,00,00,00,00,
0,00000380,false,Rx,0,8,B0,80,00,76,20,00,00,FE,
0,00000380,false,Rx,0,8,B0,80,00,76,20,00,00,FE,
0,00000284,false,Rx,0,6,0D,0D,00,00,00,00,00,00,
0,00000740,false,Rx,0,1,B6,00,00,00,00,00,00,00,
0,00000380,false,Rx,0,8,B0,80,00,76,20,00,00,FE,
0,00000380,false,Rx,0,8,B0,80,00,76,20,00,00,FE,
0,00000588,false,Rx,0,8,0B,00,72,00,00,80,00,00,
0,00000380,false,Rx,0,8,B0,80,00,76,20,00,00,FE,
0,00000740,false,Rx,0,3,15,00,00,00,00,00,00,00,
0,00000300,false,Rx,0,6,16,00,03,7F,5A,11,00,00,
0,00000488,false,Rx,0,8,6F,23,00,72,FE,FF,FF,C0,
896000,00000588,false,Rx,0,8,0B,00,72,00,00,80,00,00,
0,00000380,false,Rx,0,8,B0,80,00,76,20,00,00,FE,
0,00000300,false,Rx,0,1,B7,00,00,00,00,00,00,00,
0,00000588,false,Rx,0,8,0B,00,72,00,00,80,00,00,
0,00000380,false,Rx,0,8,B0,80,00,76,20,00,00,FE,
0,00000380,false,Rx,0,8,B0,80,00,76,20,00,00,FE,
932000,00000588,false,Rx,0,8,0B,00,72,00,00,80,00,00,
0,00000380,false,Rx,0,8,B0,80,00,76,20,00,00,FE,
0,00000380,false,Rx,0,8,B0,80,00,76,20,00,00,FE,
0,00000588,false,Rx,0,8,0B,00,72,00,00,80,00,00,
0,00000380,false,Rx,0,8,B0,80,00,76,20,00,00,FE,
0,00000300,false,Rx,0,8,2A,30,30,20,08,41,34,2E,
0,00000488,false,Rx,0,8,10,23,00,72,FE,FF,00,40,
973000,00000588,false,Rx,0,8,0B,00,72,00,00,80,00,00,
0,00000380,false,Rx,0,8,B0,80,00,76,20,00,00,FE,
0,00000740,false,Rx,0,1,BC,00,00,00,00,00,00,00,
0,00000380,false,Rx,0,8,B0,80,00,76,20,00,00,FE,
0,00000284,false,Rx,0,6,04,04,00,00,00,00,00,00,
0,00000380,false,Rx,0,8,B0,80,00,76,20,00,00,FE,
0,00000380,false,Rx,0,8,B0,80,00,76,20,00,00,FE,
0,00000588,false,Rx,0,8,0B,00,72,00,00,80,00,00,
0,00000380,false,Rx,0,8,B0,80,00,76,20,00,00,FE,
0,00000300,false,Rx,0,1,B9,00,00,00,00,00,00,00,
0,00000588,false,Rx,0,8,0B,00,72,00,00,80,00,00,
0,00000380,false,Rx,0,8,B0,80,00,76,20,00,00,FE,
0,00000740,false,Rx,0,1,BD,00,00,00,00,00,00,00,
0,00000380,false,Rx,0,8,B0,80,00,76,20,00,00,FE,
0,00000588,false,Rx,0,8,0B,00,72,00,00,80,00,00,
0,00000380,false,Rx,0,8,B0,80,00,76,20,00,00,FE,
0,00000380,false,Rx,0,8,B0,80,00,76,20,00,00,FE,
0,00000588,false,Rx,0,8,0B,00,72,00,00,80,00,00,
0,00000380,false,Rx,0,8,B0,80,00,76,20,00,00,FE,
0,00000380,false,Rx,0,8,B0,80,00,76,20,00,00,FE,
0,00000588,false,Rx,0,8,0B,00,72,00,00,80,00,00,
0,00000380,false,Rx,0,8,B0,80,00,76,20,00,00,FE,
0,00000300,false,Rx,0,1,BB,00,00,00,00,00,00,00,
0,00000488,false,Rx,0,8,70,23,00,72,FE,FF,00,20,
0,00000588,false,Rx,0,8,0B,00,72,00,00,80,00,00,
0,00000380,false,Rx,0,8,B0,80,00,76,20,00,00,FE,
121000,00000488,false,Rx,0,8,60,23,00,72,FE,FF,00,30,
0,00000380,false,Rx,0,8,B0,80,00,76,20,00,00,FE,
0,00000588,false,Rx,0,8,0B,00,72,00,00,80,00,00,
0,00000300,false,Rx,0,1,BC,00,00,00,00,00,00,00,
0,00000300,false,Rx,0,8,21,00,09,61,BC,06,08,A0,
0,00000380,false,Rx,0,8,B0,80,00,76,20,00,00,FE,
0,00000488,false,Rx,0,8,CF,23,00,72,FE,FF,FF,60,
0,00000588,false,Rx,0,8,0B,00,72,00,00,80,00,00,
0,00000380,false,Rx,0,8,B0,80,00,76,20,00,00,FE,
0,00000380,false,Rx,0,8,B0,80,00,76,20,00,00,FE,
0,00000588,false,Rx,0,8,0B,00,72,00,00,80,00,00,
0,00000288,false,Rx,0,8,8A,5B,D5,00,00,6B,57,8C,
0,00000300,false,Rx,0,6,13,00,03,7F,61,11,00,00,
0,00000488,false,Rx,0,8,0F,23,00,72,FE,FF,FF,A0,
0,00000588,false,Rx,0,8,0B,00,72,00,00,80,00,00,
0,00000380,false,Rx,0,8,B0,80,00,76,20,00,00,FE,
0,00000300,false,Rx,0,1,BE,00,00,00,00,00,00,00,
0,00000588,false,Rx,0,8,0B,00,72,00,00,80,00,00,
0,00000380,false,Rx,0,8,B0,80,00,76,20,00,00,FE,
0,00000380,false,Rx,0,8,B0,80,00,76,20,00,00,FE,
0,00000588,false,Rx,0,8,0B,00,72,00,00,80,00,00,
0,00000380,false,Rx,0,8,B0,80,00,76,20,00,00,FE,
0,00000380,false,Rx,0,8,B0,80,00,76,20,00,00,FE,
0,00000588,false,Rx,0,8,0B,00,72,00,00,80,00,00,
0,00000380,false,Rx,0,8,B0,80,00,76,20,00,00,FE,
0,00000740,false,Rx,0,3,1E,00,00,00,00,00,00,00,
0,00000300,false,Rx,0,6,17,00,03,7F,5A,11,00,00,
277000,00000588,false,Rx,0,8,0B,00,72,00,00,80,00,00,
0,00000380,false,Rx,0,8,B0,80,00,76,20,00,00,FE,
0,00000300,false,Rx,0,1,B0,00,00,00,00,00,00,00,
0,00000588,false,Rx,0,8,0B,00,72,00,00,80,00,00,
0,00000380,false,Rx,0,8,B0,80,00,76,20,00,00,FE,
301000,00000740,false,Rx,0,1,B9,00,00,00,00,00,00,00,
0,00000380,false,Rx,0,8,B0,80,00,76,20,00,00,FE,
313000,00000588,false,Rx,0,8,0B,00,72,00,00,80,00,00,
0,00000380,false,Rx,0,8,B0,80,00,76,20,00,00,FE,
0,00000380,false,Rx,0,8,B0,80,00,76,20,00,00,FE,
0,00000588,false,Rx,0,8,0B,00,72,00,00,80,00,00,
0,00000380,false,Rx,0,8,B0,80,00,76,20,00,00,FE,
0,00000380,false,Rx,0,8,B0,80,00,76,20,00,00,FE,
0,00000588,false,Rx,0,8,0B,00,72,00,00,80,00,00,
0,00000380,false,Rx,0,8,B0,80,00,76,20,00,00,FE,
0,00000380,false,Rx,0,8,B0,80,00,76,20,00,00,FE,
0,00000588,false,Rx,0,8,0B,00,72,00,00,80,00,00,
0,00000380,false,Rx,0,8,B0,80,00,76,20,00,00,FE,
0,00000380,false,Rx,0,8,B0,80,00,76,20,00,00,FE,
0,00000588,false,Rx,0,8,0B,00,72,00,00,80,00,00,
0,00000380,false,Rx,0,8,B0,80,00,76,20,00,00,FE,
0,00000380,false,Rx,0,8,B0,80,00,76,20,00,00,FE,
0,00000588,false,Rx,0,8,0B,00,72,00,00,80,00,00,
0,00000380,false,Rx,0,8,B0,80,00,76,20,00,00,FE,
0,00000380,false,Rx,0,8,B0,80,00,76,20,00,00,FE,
0,00000588,false,Rx,0,8,0B,00,72,00,00,80,00,00,
0,00000380,false,Rx,0,8,B0,80,00,76,20,00,00,FE,
0,00000380,false,Rx,0,8,B0,80,00,76,20,00,00,FE,
457000,00000588,false,Rx,0,8,0B,00,72,00,00,80,00,00,
0,00000380,false,Rx,0,8,B0,80,00,76,20,00,00,FE,
0,00000380,false,Rx,0,8,B0,80,00,76,20,00,00,FE,
0,00000588,false,Rx,0,8,0B,00,72,00,00,80,00,00,
0,00000380,false,Rx,0,8,B0,80,00,76,20,00,00,FE,
0,00000380,false,Rx,0,8,B0,80,00,76,20,00,00,FE,
493000,00000588,false,Rx,0,8,0B,00,72,00,00,80,00,00,
0,00000380,false,Rx,0,8,B0,80,00,76,20,00,00,FE,
0,00000380,false,Rx,0,8,B0,80,00,76,20,00,00,FE,
0,00000588,false,Rx,0,8,0B,00,72,00,00,80,00,00,
0,00000380,false,Rx,0,8,B0,80,00,76,20,00,00,FE,
0,00000740,false,Rx,0,1,A3,00,00,00,00,00,00,00,
0,00000380,false,Rx,0,8,B0,80,00,76,20,00,00,FE,
0,00000588,false,Rx,0,8,0B,00,72,00,00,80,00,00,
0,00000380,false,Rx,0,8,B0,80,00,76,20,00,00,FE,
0,00000380,false,Rx,0,8,B0,80,00,76,20,00,00,FE,
0,00000588,false,Rx,0,8,0B,00,72,00,00,80,00,00,
0,00000380,false,Rx,0,8,B0,80,00,76,20,00,00,FE,
0,00000380,false,Rx,0,8,B0,80,00,76,20,00,00,FE,
0,00000588,false,Rx,0,8,0B,00,72,00,00,80,00,00,
0,00000380,false,Rx,0,8,B0,80,00,76,20,00,00,FE,
0,00000380,false,Rx,0,8,B0,80,00,76,20,00,00,FE,
0,00000588,false,Rx,0,8,0B,00,72,00,00,80,00,00,
0,00000380,false,Rx,0,8,B0,80,00,76,20,00,00,FE,
0,00000380,false,Rx,0,8,B0,80,00,76,20,00,00,FE,
0,00000588,false,Rx,0,8,0B,00,72,00,00,80,00,00,
0,00000380,false,Rx,0,8,B0,80,00,76,20,00,00,FE,
0,00000380,false,Rx,0,8,B0,80,00,76,20,00,00,FE,
637000,00000588,false,Rx,0,8,0B,00,72,00,00,80,00,00,
0,00000380,false,Rx,0,8,B0,80,00,76,20,00,00,FE,
0,00000380,false,Rx,0,8,B0,80,00,76,20,00,00,FE,
0,00000588,false,Rx,0,8,0B,00,72,00,00,80,00,00,
0,00000380,false,Rx,0,8,B0,80,00,76,20,00,00,FE,
0,00000380,false,Rx,0,8,B0,80,00,76,20,00,00,FE,
0,00000588,false,Rx,0,8,0B,00,72,00,00,80,00,00,
0,00000380,false,Rx,0,8,B0,80,00,76,20,00,00,FE,
0,00000380,false,Rx,0,8,B0,80,00,76,20,00,00,FE,
694000,00000588,false,Rx,0,8,0B,00,72,00,00,80,00,00,
0,00000380,false,Rx,0,8,B0,80,00,76,20,00,00,FE,
0,00000380,false,Rx,0,8,B0,80,00,76,20,00,00,FE,
0,00000588,false,Rx,0,8,0B,00,72,00,00,80,00,00,
0,00000380,false,Rx,0,8,B0,80,00,76,20,00,00,FE,
0,00000380,false,Rx,0,8,B0,80,00,76,20,00,00,FE,
0,00000588,false,Rx,0,8,0B,00,72,00,00,80,00,00,
0,00000380,false,Rx,0,8,B0,80,00,76,20,00,00,FE,
0,00000380,false,Rx,0,8,B0,80,00,76,20,00,00,FE,
0,00000588,false,Rx,0,8,0B,00,72,00,00,80,00,00,
0,00000380,false,Rx,0,8,B0,80,00,76,20,00,00,FE,
0,00000380,false,Rx,0,8,B0,80,00,76,20,00,00,FE,
0,00000588,false,Rx,0,8,0B,00,72,00,00,80,00,00,
0,00000380,false,Rx,0,8,B0,80,00,76,20,00,00,FE,
0,00000380,false,Rx,0,8,B0,80,00,76,20,00,00,FE,
0,00000588,false,Rx,0,8,0B,00,72,00,00,80,00,00,
0,00000380,false,Rx,0,8,B0,80,00,76,20,00,00,FE,
0,00000380,false,Rx,0,8,B0,80,00,76,20,00,00,FE,
0,00000588,false,Rx,0,8,0B,00,72,00,00,80,00,00,
0,00000380,false,Rx,0,8,B0,80,00,76,20,00,00,FE,
0,00000380,false,Rx,0,8,B0,80,00,76,20,00,00,FE,
838000,00000588,false,Rx,0,8,0B,00,72,00,00,80,00,00,
0,00000380,false,Rx,0,8,B0,80,00,76,20,00,00,FE,
0,00000380,false,Rx,0,8,B0,80,00,76,20,00,00,FE,
0,00000588,false,Rx,0,8,0B,00,72,00,00,80,00,00,
0,00000380,false,Rx,0,8,B0,80,00,76,20,00,00,FE,
0,00000380,false,Rx,0,8,B0,80,00,76,20,00,00,FE,
874000,00000588,false,Rx,0,8,0B,00,72,00,00,80,00,00,
0,00000380,false,Rx,0,8,B0,80,00,76,20,00,00,FE,
0,00000380,false,Rx,0,8,B0,80,00,76,20,00,00,FE,
0,00000588,false,Rx,0,8,0B,00,72,00,00,80,00,00,
0,00000380,false,Rx,0,8,B0,80,00,76,20,00,00,FE,
0,00000380,false,Rx,0,8,B0,80,00,76,20,00,00,FE,
0,00000588,false,Rx,0,8,0B,00,72,00,00,80,00,00,
0,00000380,false,Rx,0,8,B0,80,00,76,20,00,00,FE,
0,00000380,false,Rx,0,8,B0,80,00,76,20,00,00,FE,
0,00000588,false,Rx,0,8,0B,00,72,00,00,80,00,00,
0,00000380,false,Rx,0,8,B0,80,00,76,20,00,00,FE,
0,00000380,false,Rx,0,8,B0,80,00,76,20,00,00,FE,
0,00000588,false,Rx,0,8,0B,00,72,00,00,80,00,00,
0,00000380,false,Rx,0,8,B0,80,00,76,20,00,00,FE,
0,00000380,false,Rx,0,8,B0,80,00,76,20,00,00,FE,
0,00000588,false,Rx,0,8,0B,00,72,00,00,80,00,00,
0,00000380,false,Rx,0,8,B0,80,00,76,20,00,00,FE,
0,00000380,false,Rx,0,8,B0,80,00,76,20,00,00,FE,
0,00000588,false,Rx,0,8,0B,00,72,00,00,80,00,00,
0,00000380,false,Rx,0,8,B0,80,00,76,20,00,00,FE,
0,00000380,false,Rx,0,8,B0,80,00,76,20,00,00,FE,
18000,00000588,false,Rx,0,8,0B,00,72,00,00,80,00,00,
0,00000380,false,Rx,0,8,B0,80,00,76,20,00,00,FE,
0,00000380,false,Rx,0,8,B0,80,00,76,20,00,00,FE,
0,00000588,false,Rx,0,8,0B,00,72,00,00,80,00,00,
0,00000380,false,Rx,0,8,B0,80,00,76,20,00,00,FE,
0,00000380,false,Rx,0,8,B0,80,00,76,20,00,00,FE,
55000,00000588,false,Rx,0,8,0B,00,72,00,00,80,00,00,
0,00000380,false,Rx,0,8,B0,80,00,76,20,00,00,FE,
0,00000380,false,Rx,0,8,B0,80,00,76,20,00,00,FE,
75000,00000588,false,Rx,0,8,0B,00,72,00,00,80,00,00,
0,00000380,false,Rx,0,8,B0,80,00,76,20,00,00,FE,
0,00000380,false,Rx,0,8,B0,80,00,76,20,00,00,FE,
0,00000588,false,Rx,0,8,0B,00,72,00,00,80,00,00,
0,00000380,false,Rx,0,8,B0,80,00,76,20,00,00,FE,
0,00000380,false,Rx,0,8,B0,80,00,76,20,00,00,FE,
0,00000588,false,Rx,0,8,0B,00,72,00,00,80,00,00,
0,00000380,false,Rx,0,8,B0,80,00,76,20,00,00,FE,
0,00000380,false,Rx,0,8,B0,80,00,76,20,00,00,FE,
0,00000588,false,Rx,0,8,0B,00,72,00,00,80,00,00,
0,00000380,false,Rx,0,8,B0,80,00,76,20,00,00,FE,
0,00000380,false,Rx,0,8,B0,80,00,76,20,00,00,FE,
0,00000588,false,Rx,0,8,0B,00,72,00,00,80,00,00,
0,00000380,false,Rx,0,8,B0,80,00,76,20,00,00,FE,
0,00000380,false,Rx,0,8,B0,80,00,76,20,00,00,FE,
0,00000588,false,Rx,0,8,0B,00,72,00,00,80,00,00,
0,00000380,false,Rx,0,8,B0,80,00,76,20,00,00,FE,
0,00000380,false,Rx,0,8,B0,80,00,76,20,00,00,FE,
0,00000588,false,Rx,0,8,0B,00,72,00,00,80,00,00,
0,00000380,false,Rx,0,8,B0,80,00,76,20,00,00,FE,
0,00000380,false,Rx,0,8,B0,80,00,76,20,00,00,FE,
219000,00000588,false,Rx,0,8,0B,00,72,00,00,80,00,00,
0,00000380,false,Rx,0,8,B0,80,00,76,20,00,00,FE,
0,00000380,false,Rx,0,8,B0,80,00,76,20,00,00,FE,
0,00000588,false,Rx,0,8,0B,00,72,00,00,80,00,00,
0,00000380,false,Rx,0,8,B0,80,00,76,20,00,00,FE,
0,00000380,false,Rx,0,8,B0,80,00,76,20,00,00,FE,
255000,00000588,false,Rx,0,8,0B,00,72,00,00,80,00,00,
0,00000380,false,Rx,0,8,B0,80,00,76,20,00,00,FE,
0,00000380,false,Rx,0,8,B0,80,00,76,20,00,00,FE,
0,00000588,false,Rx,0,8,0B,00,72,00,00,80,00,00,
0,00000380,false,Rx,0,8,B0,80,00,76,20,00,00,FE,
0,00000380,false,Rx,0,8,B0,80,00,76,20,00,00,FE,
0,00000588,false,Rx,0,8,0B,00,72,00,00,80,00,00,
0,00000380,false,Rx,0,8,B0,80,00,76,20,00,00,FE,
0,00000380,false,Rx,0,8,B0,80,00,76,20,00,00,FE,
0,00000588,false,Rx,0,8,0B,00,72,00,00,80,00,00,
0,00000380,false,Rx,0,8,B0,80,00,76,20,00,00,FE,
0,00000380,false,Rx,0,8,B0,80,00,76,20,00,00,FE,
0,00000588,false,Rx,0,8,0B,00,72,00,00,80,00,00,
0,00000380,false,Rx,0,8,B0,80,00,76,20,00,00,FE,
0,00000380,false,Rx,0,8,B0,80,00,76,20,00,00,FE,
0,00000588,false,Rx,0,8,0B,00,72,00,00,80,00,00,
0,00000380,false,Rx,0,8,B0,80,00,76,20,00,00,FE,
0,00000380,false,Rx,0,8,B0,80,00,76,20,00,00,FE,
0,00000588,false,Rx,0,8,0B,00,72,00,00,80,00,00,
0,00000380,false,Rx,0,8,B0,80,00,76,20,00,00,FE,
0,00000380,false,Rx,0,8,B0,80,00,76,20,00,00,FE,
399000,00000588,false,Rx,0,8,0B,00,72,00,00,80,00,00,
0,00000380,false,Rx,0,8,B0,80,00,76,20,00,00,FE,
0,00000380,false,Rx,0,8,B0,80,00,76,20,00,00,FE,
0,00000588,false,Rx,0,8,0B,00,72,00,00,80,00,00,
0,00000380,false,Rx,0,8,B0,80,00,76,20,00,00,FE,
0,00000380,false,Rx,0,8,B0,80,00,76,20,00,00,FE,
436000,00000588,false,Rx,0,8,0B,00,72,00,00,80,00,00,
0,00000380,false,Rx,0,8,B0,80,00,76,20,00,00,FE,
0,00000380,false,Rx,0,8,B0,80,00,76,20,00,00,FE,
0,00000588,false,Rx,0,8,0B,00,72,00,00,80,00,00,
0,00000380,false,Rx,0,8,B0,80,00,76,20,00,00,FE,
0,00000380,false,Rx,0,8,B0,80,00,76,20,00,00,FE,
0,00000588,false,Rx,0,8,0B,00,72,00,00,80,00,00,
0,00000380,false,Rx,0,8,B0,80,00,76,20,00,00,FE,
0,00000380,false,Rx,0,8,B0,80,00,76,20,00,00,FE,
0,00000588,false,Rx,0,8,0B,00,72,00,00,80,00,00,
0,00000380,false,Rx,0,8,B0,80,00,76,20,00,00,FE,
0,00000380,false,Rx,0,8,B0,80,00,76,20,00,00,FE,
0,00000588,false,Rx,0,8,0B,00,72,00,00,80,00,00,
0,00000380,false,Rx,0,8,B0,80,00,76,20,00,00,FE,
0,00000380,false,Rx,0,8,B0,80,00,76,20,00,00,FE,
0,00000588,false,Rx,0,8,0B,00,72,00,00,80,00,00,
0,00000380,false,Rx,0,8,B0,80,00,76,20,00,00,FE,
0,00000380,false,Rx,0,8,B0,80,00,76,20,00,00,FE,
0,00000588,false,Rx,0,8,0B,00,72,00,00,80,00,00,
0,00000380,false,Rx,0,8,B0,80,00,76,20,00,00,FE,
0,00000380,false,Rx,0,8,B0,80,00,76,20,00,00,FE,
0,00000588,false,Rx,0,8,0B,00,72,00,00,80,00,00,
0,00000380,false,Rx,0,8,B0,80,00,76,20,00,00,FE,
0,00000380,false,Rx,0,8,B0,80,00,76,20,00,00,FE,
0,00000588,false,Rx,0,8,0B,00,72,00,00,80,00,00,
0,00000380,false,Rx,0,8,B0,80,00,76,20,00,00,FE,
0,00000380,false,Rx,0,8,B0,80,00,76,20,00,00,FE,
0,00000588,false,Rx,0,8,0B,00,72,00,00,80,00,00,
0,00000380,false,Rx,0,8,B0,80,00,76,20,00,00,FE,
0,00000380,false,Rx,0,8,B0,80,00,76,20,00,00,FE,
636000,00000588,false,Rx,0,8,0B,00,72,00,00,80,00,00,
0,00000380,false,Rx,0,8,B0,80,00,76,20,00,00,FE,
0,00000380,false,Rx,0,8,B0,80,00,76,20,00,00,FE,
0,00000588,false,Rx,0,8,0B,00,72,00,00,80,00,00,
0,00000380,false,Rx,0,8,B0,80,00,76,20,00,00,FE,
0,00000380,false,Rx,0,8,B0,80,00,76,20,00,00,FE,
0,00000588,false,Rx,0,8,0B,00,72,00,00,80,00,00,
0,00000380,false,Rx,0,8,B0,80,00,76,20,00,00,FE,
0,00000380,false,Rx,0,8,B0,80,00,76,20,00,00,FE,
0,00000588,false,Rx,0,8,0B,00,72,00,00,80,00,00,
0,00000380,false,Rx,0,8,B0,80,00,76,20,00,00,FE,
0,00000380,false,Rx,0,8,B0,80,00,76,20,00,00,FE,
0,00000588,false,Rx,0,8,0B,00,72,00,00,80,00,00,
0,00000380,false,Rx,0,8,B0,80,00,76,20,00,00,FE,
0,00000380,false,Rx,0,8,B0,80,00,76,20,00,00,FE,
0,00000588,false,Rx,0,8,0B,00,72,00,00,80,00,00,
0,00000380,false,Rx,0,8,B0,80,00,76,20,00,00,FE,
