Time Stamp,ID,Extended,Dir,Bus,LEN,D1,D2,D3,D4,D5,D6,D7,D8
0,00000380,false,Rx,0,8,B0,80,00,76,20,00,00,FE,
0,00000380,false,Rx,0,8,B0,80,00,76,20,00,00,FE,
0,00000588,false,Rx,0,8,0B,00,72,00,00,80,00,00,
0,00000380,false,Rx,0,8,B0,80,00,76,20,00,00,FE,
0,00000380,false,Rx,0,8,B0,80,00,76,20,00,00,FE,
0,00000588,false,Rx,0,8,0B,00,72,00,00,80,00,00,
0,00000380,false,Rx,0,8,B0,80,00,76,20,00,00,FE,
0,00000380,false,Rx,0,8,B0,80,00,76,20,00,00,FE,
0,00000588,false,Rx,0,8,0B,00,72,00,00,80,00,00,
0,00000380,false,Rx,0,8,B0,80,00,76,20,00,00,FE,
0,00000380,false,Rx,0,8,B0,80,00,76,20,00,00,FE,
0,00000588,false,Rx,0,8,0B,00,72,00,00,80,00,00,
0,00000380,false,Rx,0,8,B0,80,00,76,20,00,00,FE,
0,00000380,false,Rx,0,8,B0,80,00,76,20,00,00,FE,
0,00000588,false,Rx,0,8,0B,00,72,00,00,80,00,00,
0,00000380,false,Rx,0,8,B0,80,00,76,20,00,00,FE,
0,00000380,false,Rx,0,8,B0,80,00,76,20,00,00,FE,
877000,00000588,false,Rx,0,8,0B,00,72,00,00,80,00,00,
0,00000380,false,Rx,0,8,B0,80,00,76,20,00,00,FE,
0,00000380,false,Rx,0,8,B0,80,00,76,20,00,00,FE,
0,00000588,false,Rx,0,8,0B,00,72,00,00,80,00,00,
0,00000380,false,Rx,0,8,B0,80,00,76,20,00,00,FE,
0,00000380,false,Rx,0,8,B0,80,00,76,20,00,00,FE,
914000,00000588,false,Rx,0,8,0B,00,72,00,00,80,00,00,
0,00000380,false,Rx,0,8,B0,80,00,76,20,00,00,FE,
0,00000380,false,Rx,0,8,B0,80,00,76,20,00,00,FE,
0,00000588,false,Rx,0,8,0B,00,72,00,00,80,00,00,
0,00000380,false,Rx,0,8,B0,80,00,76,20,00,00,FE,
0,00000380,false,Rx,0,8,B0,80,00,76,20,00,00,FE,
0,00000588,false,Rx,0,8,0B,00,72,00,00,80,00,00,
0,00000380,false,Rx,0,8,B0,80,00,76,20,00,00,FE,
0,00000380,false,Rx,0,8,B0,80,00,76,20,00,00,FE,
0,00000588,false,Rx,0,8,0B,00,72,00,00,80,00,00,
0,00000380,false,Rx,0,8,B0,80,00,76,20,00,00,FE,
0,00000380,false,Rx,0,8,B0,80,00,76,20,00,00,FE,
0,00000588,false,Rx,0,8,0B,00,72,00,00,80,00,00,
0,00000380,false,Rx,0,8,B0,80,00,76,20,00,00,FE,
0,00000380,false,Rx,0,8,B0,80,00,76,20,00,00,FE,
0,00000588,false,Rx,0,8,0B,00,72,00,00,80,00,00,
0,00000380,false,Rx,0,8,B0,80,00,76,20,00,00,FE,
0,00000380,false,Rx,0,8,B0,80,00,76,20,00,00,FE,
0,00000588,false,Rx,0,8,0B,00,72,00,00,80,00,00,
0,00000380,false,Rx,0,8,B0,80,00,76,20,00,00,FE,
0,00000380,false,Rx,0,8,B0,80,00,76,20,00,00,FE,
57000,00000588,false,Rx,0,8,0B,00,72,00,00,80,00,00,
0,00000380,false,Rx,0,8,B0,80,00,76,20,00,00,FE,
0,00000380,false,Rx,0,8,B0,80,00,76,20,00,00,FE,
0,00000588,false,Rx,0,8,0B,00,72,00,00,80,00,00,
0,00000380,false,Rx,0,8,B0,80,00,76,20,00,00,FE,
0,00000380,false,Rx,0,8,B0,80,00,76,20,00,00,FE,
94000,00000588,false,Rx,0,8,0B,00,72,00,00,80,00,00,
0,00000380,false,Rx,0,8,B0,80,00,76,20,00,00,FE,
0,00000380,false,Rx,0,8,B0,80,00,76,20,00,00,FE,
0,00000588,false,Rx,0,8,0B,00,72,00,00,80,00,00,
0,00000380,false,Rx,0,8,B0,80,00,76,20,00,00,FE,
0,00000380,false,Rx,0,8,B0,80,00,76,20,00,00,FE,
0,00000588,false,Rx,0,8,0B,00,72,00,00,80,00,00,
0,00000380,false,Rx,0,8,B0,80,00,76,20,00,00,FE,
0,00000380,false,Rx,0,8,B0,80,00,76,20,00,00,FE,
0,00000588,false,Rx,0,8,0B,00,72,00,00,80,00,00,
0,00000380,false,Rx,0,8,B0,80,00,76,20,00,00,FE,
0,00000380,false,Rx,0,8,B0,80,00,76,20,00,00,FE,
0,00000588,false,Rx,0,8,0B,00,72,00,00,80,00,00,
0,00000380,false,Rx,0,8,B0,80,00,76,20,00,00,FE,
0,00000380,false,Rx,0,8,B0,80,00,76,20,00,00,FE,
0,00000588,false,Rx,0,8,0B,00,72,00,00,80,00,00,
0,00000380,false,Rx,0,8,B0,80,00,76,20,00,00,FE,
0,00000380,false,Rx,0,8,B0,80,00,76,20,00,00,FE,
0,00000588,false,Rx,0,8,0B,00,72,00,00,80,00,00,
0,00000380,false,Rx,0,8,B0,80,00,76,20,00,00,FE,
0,00000380,false,Rx,0,8,B0,80,00,76,20,00,00,FE,
0,00000588,false,Rx,0,8,0B,00,72,00,00,80,00,00,
0,00000380,false,Rx,0,8,B0,80,00,76,20,00,00,FE,
0,00000380,false,Rx,0,8,B0,80,00,76,20,00,00,FE,
0,00000588,false,Rx,0,8,0B,00,72,00,00,80,00,00,
0,00000380,false,Rx,0,8,B0,80,00,76,20,00,00,FE,
0,00000380,false,Rx,0,8,B0,80,00,76,20,00,00,FE,
0,00000588,false,Rx,0,8,0B,00,72,00,00,80,00,00,
0,00000380,false,Rx,0,8,B0,80,00,76,20,00,00,FE,
0,00000380,false,Rx,0,8,B0,80,00,76,20,00,00,FE,
295000,00000588,false,Rx,0,8,0B,00,72,00,00,80,00,00,
0,00000380,false,Rx,0,8,B0,80,00,76,20,00,00,FE,
0,00000380,false,Rx,0,8,B0,80,00,76,20,00,00,FE,
0,00000588,false,Rx,0,8,0B,00,72,00,00,80,00,00,
0,00000380,false,Rx,0,8,B0,80,00,76,20,00,00,FE,
0,00000380,false,Rx,0,8,B0,80,00,76,20,00,00,FE,
0,00000588,false,Rx,0,8,0B,00,72,00,00,80,00,00,
0,00000380,false,Rx,0,8,B0,80,00,76,20,00,00,FE,
0,00000380,false,Rx,0,8,B0,80,00,76,20,00,00,FE,
0,00000588,false,Rx,0,8,0B,00,72,00,00,80,00,00,
0,00000380,false,Rx,0,8,B0,80,00,76,20,00,00,FE,
0,00000380,false,Rx,0,8,B0,80,00,76,20,00,00,FE,
0,00000588,false,Rx,0,8,0B,00,72,00,00,80,00,00,
0,00000380,false,Rx,0,8,B0,80,00,76,20,00,00,FE,
0,00000380,false,Rx,0,8,B0,80,00,76,20,00,00,FE,
0,00000588,false,Rx,0,8,0B,00,72,00,00,80,00,00,
0,00000380,false,Rx,0,8,B0,80,00,76,20,00,00,FE,
0,00000380,false,Rx,0,8,B0,80,00,76,20,00,00,FE,
0,00000588,false,Rx,0,8,0B,00,72,00,00,80,00,00,
0,00000380,false,Rx,0,8,B0,80,00,76,20,00,00,FE,
0,00000380,false,Rx,0,8,B0,80,00,76,20,00,00,FE,
438000,00000588,false,Rx,0,8,0B,00,72,00,00,80,00,00,
0,00000380,false,Rx,0,8,B0,80,00,76,20,00,00,FE,
0,00000380,false,Rx,0,8,B0,80,00,76,20,00,00,FE,
0,00000588,false,Rx,0,8,0B,00,72,00,00,80,00,00,
0,00000380,false,Rx,0,8,B0,80,00,76,20,00,00,FE,
0,00000380,false,Rx,0,8,B0,80,00,76,20,00,00,FE,
475000,00000588,false,Rx,0,8,0B,00,72,00,00,80,00,00,
0,00000380,false,Rx,0,8,B0,80,00,76,20,00,00,FE,
0,00000380,false,Rx,0,8,B0,80,00,76,20,00,00,FE,
0,00000588,false,Rx,0,8,0B,00,72,00,00,80,00,00,
0,00000380,false,Rx,0,8,B0,80,00,76,20,00,00,FE,
0,00000380,false,Rx,0,8,B0,80,00,76,20,00,00,FE,
0,00000588,false,Rx,0,8,0B,00,72,00,00,80,00,00,
0,00000380,false,Rx,0,8,B0,80,00,76,20,00,00,FE,
0,00000380,false,Rx,0,8,B0,80,00,76,20,00,00,FE,
0,00000588,false,Rx,0,8,0B,00,72,00,00,80,00,00,
0,00000380,false,Rx,0,8,B0,80,00,76,20,00,00,FE,
0,00000380,false,Rx,0,8,B0,80,00,76,20,00,00,FE,
0,00000588,false,Rx,0,8,0B,00,72,00,00,80,00,00,
0,00000380,false,Rx,0,8,B0,80,00,76,20,00,00,FE,
0,00000380,false,Rx,0,8,B0,80,00,76,20,00,00,FE,
0,00000588,false,Rx,0,8,0B,00,72,00,00,80,00,00,
0,00000380,false,Rx,0,8,B0,80,00,76,20,00,00,FE,
0,00000380,false,Rx,0,8,B0,80,00,76,20,00,00,FE,
0,00000588,false,Rx,0,8,0B,00,72,00,00,80,00,00,
0,00000380,false,Rx,0,8,B0,80,00,76,20,00,00,FE,
0,00000380,false,Rx,0,8,B0,80,00,76,20,00,00,FE,
619000,00000588,false,Rx,0,8,0B,00,72,00,00,80,00,00,
0,00000380,false,Rx,0,8,B0,80,00,76,20,00,00,FE,
0,00000380,false,Rx,0,8,B0,80,00,76,20,00,00,FE,
0,00000588,false,Rx,0,8,0B,00,72,00,00,80,00,00,
0,00000380,false,Rx,0,8,B0,80,00,76,20,00,00,FE,
0,00000380,false,Rx,0,8,B0,80,00,76,20,00,00,FE,
655000,00000588,false,Rx,0,8,0B,00,72,00,00,80,00,00,
0,00000380,false,Rx,0,8,B0,80,00,76,20,00,00,FE,
0,00000380,false,Rx,0,8,B0,80,00,76,20,00,00,FE,
676000,00000588,false,Rx,0,8,0B,00,72,00,00,80,00,00,
0,00000380,false,Rx,0,8,B0,80,00,76,20,00,00,FE,
0,00000380,false,Rx,0,8,B0,80,00,76,20,00,00,FE,
0,00000588,false,Rx,0,8,0B,00,72,00,00,80,00,00,
0,00000380,false,Rx,0,8,B0,80,00,76,20,00,00,FE,
0,00000380,false,Rx,0,8,B0,80,00,76,20,00,00,FE,
0,00000588,false,Rx,0,8,0B,00,72,00,00,80,00,00,
0,00000380,false,Rx,0,8,B0,80,00,76,20,00,00,FE,
0,00000380,false,Rx,0,8,B0,80,00,76,20,00,00,FE,
0,00000588,false,Rx,0,8,0B,00,72,00,00,80,00,00,
0,00000380,false,Rx,0,8,B0,80,00,76,20,00,00,FE,
0,00000380,false,Rx,0,8,B0,80,00,76,20,00,00,FE,
0,00000588,false,Rx,0,8,0B,00,72,00,00,80,00,00,
0,00000380,false,Rx,0,8,B0,80,00,76,20,00,00,FE,
0,00000380,false,Rx,0,8,B0,80,00,76,20,00,00,FE,
0,00000588,false,Rx,0,8,0B,00,72,00,00,80,00,00,
0,00000380,false,Rx,0,8,B0,80,00,76,20,00,00,FE,
0,00000380,false,Rx,0,8,B0,80,00,76,20,00,00,FE,
0,00000588,false,Rx,0,8,0B,00,72,00,00,80,00,00,
0,00000380,false,Rx,0,8,B0,80,00,76,20,00,00,FE,
0,00000380,false,Rx,0,8,B0,80,00,76,20,00,00,FE,
819000,00000588,false,Rx,0,8,0B,00,72,00,00,80,00,00,
0,00000380,false,Rx,0,8,B0,80,00,76,20,00,00,FE,
0,00000380,false,Rx,0,8,B0,80,00,76,20,00,00,FE,
0,00000588,false,Rx,0,8,0B,00,72,00,00,80,00,00,
0,00000380,false,Rx,0,8,B0,80,00,76,20,00,00,FE,
0,00000380,false,Rx,0,8,B0,80,00,76,20,00,00,FE,
856000,00000588,false,Rx,0,8,0B,00,72,00,00,80,00,00,
0,00000380,false,Rx,0,8,B0,80,00,76,20,00,00,FE,
0,00000380,false,Rx,0,8,B0,80,00,76,20,00,00,FE,
0,00000588,false,Rx,0,8,0B,00,72,00,00,80,00,00,
0,00000380,false,Rx,0,8,B0,80,00,76,20,00,00,FE,
0,00000380,false,Rx,0,8,B0,80,00,76,20,00,00,FE,
0,00000588,false,Rx,0,8,0B,00,72,00,00,80,00,00,
0,00000380,false,Rx,0,8,B0,80,00,76,20,00,00,FE,
0,00000380,false,Rx,0,8,B0,80,00,76,20,00,00,FE,
0,00000588,false,Rx,0,8,0B,00,72,00,00,80,00,00,
0,00000380,false,Rx,0,8,B0,80,00,76,20,00,00,FE,
0,00000380,false,Rx,0,8,B0,80,00,76,20,00,00,FE,
0,00000588,false,Rx,0,8,0B,00,72,00,00,80,00,00,
0,00000380,false,Rx,0,8,B0,80,00,76,20,00,00,FE,
0,00000380,false,Rx,0,8,B0,80,00,76,20,00,00,FE,
0,00000588,false,Rx,0,8,0B,00,72,00,00,80,00,00,
0,00000380,false,Rx,0,8,B0,80,00,76,20,00,00,FE,
0,00000380,false,Rx,0,8,B0,80,00,76,20,00,00,FE,
0,00000588,false,Rx,0,8,0B,00,72,00,00,80,00,00,
0,00000380,false,Rx,0,8,B0,80,00,76,20,00,00,FE,
0,00000380,false,Rx,0,8,B0,80,00,76,20,00,00,FE,
999000,00000588,false,Rx,0,8,0B,00,72,00,00,80,00,00,
0,00000380,false,Rx,0,8,B0,80,00,76,20,00,00,FE,
0,00000380,false,Rx,0,8,B0,80,00,76,20,00,00,FE,
0,00000588,false,Rx,0,8,0B,00,72,00,00,80,00,00,
0,00000380,false,Rx,0,8,B0,80,00,76,20,00,00,FE,
0,00000380,false,Rx,0,8,B0,80,00,76,20,00,00,FE,
36000,00000588,false,Rx,0,8,0B,00,72,00,00,80,00,00,
0,00000380,false,Rx,0,8,B0,80,00,76,20,00,00,FE,
0,00000380,false,Rx,0,8,B0,80,00,76,20,00,00,FE,
0,00000588,false,Rx,0,8,0B,00,72,00,00,80,00,00,
0,00000380,false,Rx,0,8,B0,80,00,76,20,00,00,FE,
0,00000380,false,Rx,0,8,B0,80,00,76,20,00,00,FE,
0,00000588,false,Rx,0,8,0B,00,72,00,00,80,00,00,
0,00000380,false,Rx,0,8,B0,80,00,76,20,00,00,FE,
0,00000380,false,Rx,0,8,B0,80,00,76,20,00,00,FE,
0,00000588,false,Rx,0,8,0B,00,72,00,00,80,00,00,
0,00000380,false,Rx,0,8,B0,80,00,76,20,00,00,FE,
0,00000380,false,Rx,0,8,B0,80,00,76,20,00,00,FE,
0,00000588,false,Rx,0,8,0B,00,72,00,00,80,00,00,
0,00000380,false,Rx,0,8,B0,80,00,76,20,00,00,FE,
0,00000380,false,Rx,0,8,B0,80,00,76,20,00,00,FE,
0,00000588,false,Rx,0,8,0B,00,72,00,00,80,00,00,
0,00000380,false,Rx,0,8,B0,80,00,76,20,00,00,FE,
0,00000380,false,Rx,0,8,B0,80,00,76,20,00,00,FE,
0,00000588,false,Rx,0,8,0B,00,72,00,00,80,00,00,
0,00000380,false,Rx,0,8,B0,80,00,76,20,00,00,FE,
0,00000380,false,Rx,0,8,B0,80,00,76,20,00,00,FE,
0,00000588,false,Rx,0,8,0B,00,72,00,00,80,00,00,
0,00000380,false,Rx,0,8,B0,80,00,76,20,00,00,FE,
0,00000380,false,Rx,0,8,B0,80,00,76,20,00,00,FE,
0,00000588,false,Rx,0,8,0B,00,72,00,00,80,00,00,
0,00000380,false,Rx,0,8,B0,80,00,76,20,00,00,FE,
0,00000380,false,Rx,0,8,B0,80,00,76,20,00,00,FE,
0,00000588,false,Rx,0,8,0B,00,72,00,00,80,00,00,
0,00000380,false,Rx,0,8,B0,80,00,76,20,00,00,FE,
0,00000380,false,Rx,0,8,B0,80,00,76,20,00,00,FE,
237000,00000588,false,Rx,0,8,0B,00,72,00,00,80,00,00,
0,00000380,false,Rx,0,8,B0,80,00,76,20,00,00,FE,
0,00000380,false,Rx,0,8,B0,80,00,76,20,00,00,FE,
0,00000588,false,Rx,0,8,0B,00,72,00,00,80,00,00,
0,00000380,false,Rx,0,8,B0,80,00,76,20,00,00,FE,
0,00000380,false,Rx,0,8,B0,80,00,76,20,00,00,FE,
0,00000588,false,Rx,0,8,0B,00,72,00,00,80,00,00,
0,00000380,false,Rx,0,8,B0,80,00,76,20,00,00,FE,
0,00000380,false,Rx,0,8,B0,80,00,76,20,00,00,FE,
0,00000588,false,Rx,0,8,0B,00,72,00,00,80,00,00,
0,00000380,false,Rx,0,8,B0,80,00,76,20,00,00,FE,
0,00000380,false,Rx,0,8,B0,80,00,76,20,00,00,FE,
0,00000588,false,Rx,0,8,0B,00,72,00,00,80,00,00,
0,00000380,false,Rx,0,8,B0,80,00,76,20,00,00,FE,
0,00000380,false,Rx,0,8,B0,80,00,76,20,00,00,FE,
0,00000588,false,Rx,0,8,0B,00,72,00,00,80,00,00,
0,00000380,false,Rx,0,8,B0,80,00,76,20,00,00,FE,
0,00000380,false,Rx,0,8,B0,80,00,76,20,00,00,FE,
0,00000588,false,Rx,0,8,0B,00,72,00,00,80,00,00,
0,00000380,false,Rx,0,8,B0,80,00,76,20,00,00,FE,
0,00000380,false,Rx,0,8,B0,80,00,76,20,00,00,FE,
380000,00000588,false,Rx,0,8,0B,00,72,00,00,80,00,00,
0,00000380,false,Rx,0,8,B0,80,00,76,20,00,00,FE,
0,00000380,false,Rx,0,8,B0,80,00,76,20,00,00,FE,
0,00000588,false,Rx,0,8,0B,00,72,00,00,80,00,00,
0,00000380,false,Rx,0,8,B0,80,00,76,20,00,00,FE,
0,00000380,false,Rx,0,8,B0,80,00,76,20,00,00,FE,
417000,00000588,false,Rx,0,8,0B,00,72,00,00,80,00,00,
0,00000380,false,Rx,0,8,B0,80,00,76,20,00,00,FE,
0,00000380,false,Rx,0,8,B0,80,00,76,20,00,00,FE,
0,00000588,false,Rx,0,8,0B,00,72,00,00,80,00,00,
0,00000380,false,Rx,0,8,B0,80,00,76,20,00,00,FE,
0,00000380,false,Rx,0,8,B0,80,00,76,20,00,00,FE,
0,00000588,false,Rx,0,8,0B,00,72,00,00,80,00,00,
0,00000380,false,Rx,0,8,B0,80,00,76,20,00,00,FE,
0,00000380,false,Rx,0,8,B0,80,00,76,20,00,00,FE,
0,00000588,false,Rx,0,8,0B,00,72,00,00,80,00,00,
0,00000380,false,Rx,0,8,B0,80,00,76,20,00,00,FE,
0,00000380,false,Rx,0,8,B0,80,00,76,20,00,00,FE,
0,00000588,false,Rx,0,8,0B,00,72,00,00,80,00,00,
0,00000380,false,Rx,0,8,B0,80,00,76,20,00,00,FE,
0,00000380,false,Rx,0,8,B0,80,00,76,20,00,00,FE,
0,00000588,false,Rx,0,8,0B,00,72,00,00,80,00,00,
0,00000380,false,Rx,0,8,B0,80,00,76,20,00,00,FE,
0,00000380,false,Rx,0,8,B0,80,00,76,20,00,00,FE,
0,00000588,false,Rx,0,8,0B,00,72,00,00,80,00,00,
0,00000380,false,Rx,0,8,B0,80,00,76,20,00,00,FE,
0,00000380,false,Rx,0,8,B0,80,00,76,20,00,00,FE,
561000,00000588,false,Rx,0,8,0B,00,72,00,00,80,00,00,
0,00000380,false,Rx,0,8,B0,80,00,76,20,00,00,FE,
0,00000380,false,Rx,0,8,B0,80,00,76,20,00,00,FE,
0,00000588,false,Rx,0,8,0B,00,72,00,00,80,00,00,
0,00000380,false,Rx,0,8,B0,80,00,76,20,00,00,FE,
0,00000380,false,Rx,0,8,B0,80,00,76,20,00,00,FE,
598000,00000588,false,Rx,0,8,0B,00,72,00,00,80,00,00,
0,00000380,false,Rx,0,8,B0,80,00,76,20,00,00,FE,
0,00000380,false,Rx,0,8,B0,80,00,76,20,00,00,FE,
618000,00000588,false,Rx,0,8,0B,00,72,00,00,80,00,00,
0,00000380,false,Rx,0,8,B0,80,00,76,20,00,00,FE,
0,00000380,false,Rx,0,8,B0,80,00,76,20,00,00,FE,
0,00000588,false,Rx,0,8,0B,00,72,00,00,80,00,00,
0,00000380,false,Rx,0,8,B0,80,00,76,20,00,00,FE,
0,00000380,false,Rx,0,8,B0,80,00,76,20,00,00,FE,
0,00000588,false,Rx,0,8,0B,00,72,00,00,80,00,00,
0,00000380,false,Rx,0,8,B0,80,00,76,20,00,00,FE,
0,00000380,false,Rx,0,8,B0,80,00,76,20,00,00,FE,
0,00000588,false,Rx,0,8,0B,00,72,00,00,80,00,00,
0,00000380,false,Rx,0,8,B0,80,00,76,20,00,00,FE,
0,00000380,false,Rx,0,8,B0,80,00,76,20,00,00,FE,
0,00000588,false,Rx,0,8,0B,00,72,00,00,80,00,00,
0,00000380,false,Rx,0,8,B0,80,00,76,20,00,00,FE,
0,00000380,false,Rx,0,8,B0,80,00,76,20,00,00,FE,
0,00000588,false,Rx,0,8,0B,00,72,00,00,80,00,00,
0,00000380,false,Rx,0,8,B0,80,00,76,20,00,00,FE,
0,00000380,false,Rx,0,8,B0,80,00,76,20,00,00,FE,
0,00000588,false,Rx,0,8,0B,00,72,00,00,80,00,00,
0,00000380,false,Rx,0,8,B0,80,00,76,20,00,00,FE,
0,00000380,false,Rx,0,8,B0,80,00,76,20,00,00,FE,
761000,00000588,false,Rx,0,8,0B,00,72,00,00,80,00,00,
0,00000380,false,Rx,0,8,B0,80,00,76,20,00,00,FE,
0,00000380,false,Rx,0,8,B0,80,00,76,20,00,00,FE,
0,00000588,false,Rx,0,8,0B,00,72,00,00,80,00,00,
0,00000380,false,Rx,0,8,B0,80,00,76,20,00,00,FE,
0,00000380,false,Rx,0,8,B0,80,00,76,20,00,00,FE,
798000,00000588,false,Rx,0,8,0B,00,72,00,00,80,00,00,
0,00000380,false,Rx,0,8,B0,80,00,76,20,00,00,FE,
0,00000380,false,Rx,0,8,B0,80,00,76,20,00,00,FE,
0,00000588,false,Rx,0,8,0B,00,72,00,00,80,00,00,
0,00000380,false,Rx,0,8,B0,80,00,76,20,00,00,FE,
0,00000380,false,Rx,0,8,B0,80,00,76,20,00,00,FE,
0,00000588,false,Rx,0,8,0B,00,72,00,00,80,00,00,
0,00000380,false,Rx,0,8,B0,80,00,76,20,00,00,FE,
0,00000380,false,Rx,0,8,B0,80,00,76,20,00,00,FE,
0,00000588,false,Rx,0,8,0B,00,72,00,00,80,00,00,
0,00000380,false,Rx,0,8,B0,80,00,76,20,00,00,FE,
0,00000380,false,Rx,0,8,B0,80,00,76,20,00,00,FE,
0,00000588,false,Rx,0,8,0B,00,72,00,00,80,00,00,
0,00000380,false,Rx,0,8,B0,80,00,76,20,00,00,FE,
0,00000380,false,Rx,0,8,B0,80,00,76,20,00,00,FE,
0,00000588,false,Rx,0,8,0B,00,72,00,00,80,00,00,
0,00000380,false,Rx,0,8,B0,80,00,76,20,00,00,FE,
0,00000380,false,Rx,0,8,B0,80,00,76,20,00,00,FE,
0,00000588,false,Rx,0,8,0B,00,72,00,00,80,00,00,
0,00000380,false,Rx,0,8,B0,80,00,76,20,00,00,FE,
0,00000380,false,Rx,0,8,B0,80,00,76,20,00,00,FE,
942000,00000588,false,Rx,0,8,0B,00,72,00,00,80,00,00,
0,00000380,false,Rx,0,8,B0,80,00,76,20,00,00,FE,
0,00000380,false,Rx,0,8,B0,80,00,76,20,00,00,FE,
0,00000588,false,Rx,0,8,0B,00,72,00,00,80,00,00,
0,00000380,false,Rx,0,8,B0,80,00,76,20,00,00,FE,
0,00000380,false,Rx,0,8,B0,80,00,76,20,00,00,FE,
978000,00000588,false,Rx,0,8,0B,00,72,00,00,80,00,00,
0,00000380,false,Rx,0,8,B0,80,00,76,20,00,00,FE,
0,00000380,false,Rx,0,8,B0,80,00,76,20,00,00,FE,
0,00000588,false,Rx,0,8,0B,00,72,00,00,80,00,00,
0,00000380,false,Rx,0,8,B0,80,00,76,20,00,00,FE,
0,00000380,false,Rx,0,8,B0,80,00,76,20,00,00,FE,
0,00000588,false,Rx,0,8,0B,00,72,00,00,80,00,00,
0,00000380,false,Rx,0,8,B0,80,00,76,20,00,00,FE,
0,00000380,false,Rx,0,8,B0,80,00,76,20,00,00,FE,
0,00000588,false,Rx,0,8,0B,00,72,00,00,80,00,00,
0,00000380,false,Rx,0,8,B0,80,00,76,20,00,00,FE,
0,00000380,false,Rx,0,8,B0,80,00,76,20,00,00,FE,
0,00000588,false,Rx,0,8,0B,00,72,00,00,80,00,00,
0,00000380,false,Rx,0,8,B0,80,00,76,20,00,00,FE,
0,00000380,false,Rx,0,8,B0,80,00,76,20,00,00,FE,
0,00000588,false,Rx,0,8,0B,00,72,00,00,80,00,00,
0,00000380,false,Rx,0,8,B0,80,00,76,20,00,00,FE,
0,00000380,false,Rx,0,8,B0,80,00,76,20,00,00,FE,
0,00000588,false,Rx,0,8,0B,00,72,00,00,80,00,00,
0,00000380,false,Rx,0,8,B0,80,00,76,20,00,00,FE,
0,00000380,false,Rx,0,8,B0,80,00,76,20,00,00,FE,
0,00000588,false,Rx,0,8,0B,00,72,00,00,80,00,00,
0,00000380,false,Rx,0,8,B0,80,00,76,20,00,00,FE,
0,00000380,false,Rx,0,8,B0,80,00,76,20,00,00,FE,
142000,00000588,false,Rx,0,8,0B,00,72,00,00,80,00,00,
0,00000380,false,Rx,0,8,B0,80,00,76,20,00,00,FE,
0,00000380,false,Rx,0,8,B0,80,00,76,20,00,00,FE,
0,00000588,false,Rx,0,8,0B,00,72,00,00,80,00,00,
0,00000380,false,Rx,0,8,B0,80,00,76,20,00,00,FE,
0,00000380,false,Rx,0,8,B0,80,00,76,20,00,00,FE,
179000,00000588,false,Rx,0,8,0B,00,72,00,00,80,00,00,
0,00000380,false,Rx,0,8,B0,80,00,76,20,00,00,FE,
0,00000380,false,Rx,0,8,B0,80,00,76,20,00,00,FE,
0,00000588,false,Rx,0,8,0B,00,72,00,00,80,00,00,
0,00000380,false,Rx,0,8,B0,80,00,76,20,00,00,FE,
0,00000380,false,Rx,0,8,B0,80,00,76,20,00,00,FE,
0,00000588,false,Rx,0,8,0B,00,72,00,00,80,00,00,
0,00000380,false,Rx,0,8,B0,80,00,76,20,00,00,FE,
0,00000380,false,Rx,0,8,B0,80,00,76,20,00,00,FE,
0,00000588,false,Rx,0,8,0B,00,72,00,00,80,00,00,
0,00000380,false,Rx,0,8,B0,80,00,76,20,00,00,FE,
0,00000380,false,Rx,0,8,B0,80,00,76,20,00,00,FE,
0,00000588,false,Rx,0,8,0B,00,72,00,00,80,00,00,
0,00000380,false,Rx,0,8,B0,80,00,76,20,00,00,FE,
0,00000380,false,Rx,0,8,B0,80,00,76,20,00,00,FE,
0,00000588,false,Rx,0,8,0B,00,72,00,00,80,00,00,
0,00000380,false,Rx,0,8,B0,80,00,76,20,00,00,FE,
0,00000380,false,Rx,0,8,B0,80,00,76,20,00,00,FE,
0,00000588,false,Rx,0,8,0B,00,72,00,00,80,00,00,
0,00000380,false,Rx,0,8,B0,80,00,76,20,00,00,FE,
0,00000380,false,Rx,0,8,B0,80,00,76,20,00,00,FE,
323000,00000588,false,Rx,0,8,0B,00,72,00,00,80,00,00,
0,00000380,false,Rx,0,8,B0,80,00,76,20,00,00,FE,
0,00000380,false,Rx,0,8,B0,80,00,76,20,00,00,FE,
0,00000588,false,Rx,0,8,0B,00,72,00,00,80,00,00,
0,00000380,false,Rx,0,8,B0,80,00,76,20,00,00,FE,
0,00000380,false,Rx,0,8,B0,80,00,76,20,00,00,FE,
359000,00000588,false,Rx,0,8,0B,00,72,00,00,80,00,00,
0,00000380,false,Rx,0,8,B0,80,00,76,20,00,00,FE,
0,00000380,false,Rx,0,8,B0,80,00,76,20,00,00,FE,
0,00000588,false,Rx,0,8,0B,00,72,00,00,80,00,00,
0,00000380,false,Rx,0,8,B0,80,00,76,20,00,00,FE,
0,00000380,false,Rx,0,8,B0,80,00,76,20,00,00,FE,
0,00000588,false,Rx,0,8,0B,00,72,00,00,80,00,00,
0,00000380,false,Rx,0,8,B0,80,00,76,20,00,00,FE,
0,00000380,false,Rx,0,8,B0,80,00,76,20,00,00,FE,
0,00000588,false,Rx,0,8,0B,00,72,00,00,80,00,00,
0,00000380,false,Rx,0,8,B0,80,00,76,20,00,00,FE,
0,00000380,false,Rx,0,8,B0,80,00,76,20,00,00,FE,
0,00000588,false,Rx,0,8,0B,00,72,00,00,80,00,00,
0,00000380,false,Rx,0,8,B0,80,00,76,20,00,00,FE,
0,00000380,false,Rx,0,8,B0,80,00,76,20,00,00,FE,
0,00000588,false,Rx,0,8,0B,00,72,00,00,80,00,00,
0,00000380,false,Rx,0,8,B0,80,00,76,20,00,00,FE,
0,00000380,false,Rx,0,8,B0,80,00,76,20,00,00,FE,
0,00000588,false,Rx,0,8,0B,00,72,00,00,80,00,00,
0,00000380,false,Rx,0,8,B0,80,00,76,20,00,00,FE,
0,00000380,false,Rx,0,8,B0,80,00,76,20,00,00,FE,
503000,00000588,false,Rx,0,8,0B,00,72,00,00,80,00,00,
0,00000380,false,Rx,0,8,B0,80,00,76,20,00,00,FE,
0,00000380,false,Rx,0,8,B0,80,00,76,20,00,00,FE,
0,00000588,false,Rx,0,8,0B,00,72,00,00,80,00,00,
0,00000380,false,Rx,0,8,B0,80,00,76,20,00,00,FE,
0,00000380,false,Rx,0,8,B0,80,00,76,20,00,00,FE,
0,00000588,false,Rx,0,8,0B,00,72,00,00,80,00,00,
0,00000380,false,Rx,0,8,B0,80,00,76,20,00,00,FE,
0,00000380,false,Rx,0,8,B0,80,00,76,20,00,00,FE,
560000,00000588,false,Rx,0,8,0B,00,72,00,00,80,00,00,
0,00000380,false,Rx,0,8,B0,80,00,76,20,00,00,FE,
0,00000380,false,Rx,0,8,B0,80,00,76,20,00,00,FE,
0,00000588,false,Rx,0,8,0B,00,72,00,00,80,00,00,
0,00000380,false,Rx,0,8,B0,80,00,76,20,00,00,FE,
0,00000380,false,Rx,0,8,B0,80,00,76,20,00,00,FE,
0,00000588,false,Rx,0,8,0B,00,72,00,00,80,00,00,
0,00000380,false,Rx,0,8,B0,80,00,76,20,00,00,FE,
0,00000380,false,Rx,0,8,B0,80,00,76,20,00,00,FE,
0,00000588,false,Rx,0,8,0B,00,72,00,00,80,00,00,
0,00000380,false,Rx,0,8,B0,80,00,76,20,00,00,FE,
0,00000380,false,Rx,0,8,B0,80,00,76,20,00,00,FE,
0,00000588,false,Rx,0,8,0B,00,72,00,00,80,00,00,
0,00000380,false,Rx,0,8,B0,80,00,76,20,00,00,FE,
0,00000380,false,Rx,0,8,B0,80,00,76,20,00,00,FE,
0,00000588,false,Rx,0,8,0B,00,72,00,00,80,00,00,
0,00000380,false,Rx,0,8,B0,80,00,76,20,00,00,FE,
0,00000380,false,Rx,0,8,B0,80,00,76,20,00,00,FE,
0,00000588,false,Rx,0,8,0B,00,72,00,00,80,00,00,
0,00000380,false,Rx,0,8,B0,80,00,76,20,00,00,FE,
0,00000380,false,Rx,0,8,B0,80,00,76,20,00,00,FE,
703000,00000588,false,Rx,0,8,0B,00,72,00,00,80,00,00,
0,00000380,false,Rx,0,8,B0,80,00,76,20,00,00,FE,
0,00000380,false,Rx,0,8,B0,80,00,76,20,00,00,FE,
0,00000588,false,Rx,0,8,0B,00,72,00,00,80,00,00,
0,00000380,false,Rx,0,8,B0,80,00,76,20,00,00,FE,
0,00000380,false,Rx,0,8,B0,80,00,76,20,00,00,FE,
740000,00000588,false,Rx,0,8,0B,00,72,00,00,80,00,00,
0,00000380,false,Rx,0,8,B0,80,00,76,20,00,00,FE,
0,00000380,false,Rx,0,8,B0,80,00,76,20,00,00,FE,
0,00000588,false,Rx,0,8,0B,00,72,00,00,80,00,00,
0,00000380,false,Rx,0,8,B0,80,00,76,20,00,00,FE,
0,00000380,false,Rx,0,8,B0,80,00,76,20,00,00,FE,
0,00000588,false,Rx,0,8,0B,00,72,00,00,80,00,00,
0,00000380,false,Rx,0,8,B0,80,00,76,20,00,00,FE,
0,00000380,false,Rx,0,8,B0,80,00,76,20,00,00,FE,
0,00000588,false,Rx,0,8,0B,00,72,00,00,80,00,00,
0,00000380,false,Rx,0,8,B0,80,00,76,20,00,00,FE,
0,00000380,false,Rx,0,8,B0,80,00,76,20,00,00,FE,
0,00000588,false,Rx,0,8,0B,00,72,00,00,80,00,00,
0,00000380,false,Rx,0,8,B0,80,00,76,20,00,00,FE,
0,00000380,false,Rx,0,8,B0,80,00,76,20,00,00,FE,
0,00000588,false,Rx,0,8,0B,00,72,00,00,80,00,00,
0,00000380,false,Rx,0,8,B0,80,00,76,20,00,00,FE,
0,00000380,false,Rx,0,8,B0,80,00,76,20,00,00,FE,
0,00000284,false,Rx,0,6,0B,0B,00,00,00,00,00,00,
0,00000380,false,Rx,0,8,B0,80,00,76,20,00,00,FE,
0,00000380,false,Rx,0,8,B0,80,00,76,20,00,00,FE,
884000,00000588,false,Rx,0,8,0B,00,72,00,00,80,00,00,
0,00000380,false,Rx,0,8,B0,80,00,76,20,00,00,FE,
0,00000380,false,Rx,0,8,B0,80,00,76,20,00,00,FE,
0,00000588,false,Rx,0,8,0B,00,72,00,00,80,00,00,
0,00000380,false,Rx,0,8,B0,80,00,76,20,00,00,FE,
0,00000380,false,Rx,0,8,B0,80,00,76,20,00,00,FE,
921000,00000588,false,Rx,0,8,0B,00,72,00,00,80,00,00,
0,00000380,false,Rx,0,8,B0,80,00,76,20,00,00,FE,
0,00000380,false,Rx,0,8,B0,80,00,76,20,00,00,FE,
0,00000588,false,Rx,0,8,0B,00,72,00,00,80,00,00,
0,00000380,false,Rx,0,8,B0,80,00,76,20,00,00,FE,
0,00000380,false,Rx,0,8,B0,80,00,76,20,00,00,FE,
0,00000588,false,Rx,0,8,0B,00,72,00,00,80,00,00,
0,00000380,false,Rx,0,8,B0,80,00,76,20,00,00,FE,
0,00000380,false,Rx,0,8,B0,80,00,76,20,00,00,FE,
0,00000588,false,Rx,0,8,0B,00,72,00,00,80,00,00,
0,00000380,false,Rx,0,8,B0,80,00,76,20,00,00,FE,
0,00000380,false,Rx,0,8,B0,80,00,76,20,00,00,FE,
0,00000588,false,Rx,0,8,0B,00,72,00,00,80,00,00,
0,00000380,false,Rx,0,8,B0,80,00,76,20,00,00,FE,
0,00000380,false,Rx,0,8,B0,80,00,76,20,00,00,FE,
0,00000588,false,Rx,0,8,0B,00,72,00,00,80,00,00,
0,00000380,false,Rx,0,8,B0,80,00,76,20,00,00,FE,
0,00000380,false,Rx,0,8,B0,80,00,76,20,00,00,FE,
0,00000588,false,Rx,0,8,0B,00,72,00,00,80,00,00,
0,00000380,false,Rx,0,8,B0,80,00,76,20,00,00,FE,
0,00000380,false,Rx,0,8,B0,80,00,76,20,00,00,FE,
0,00000588,false,Rx,0,8,0B,00,72,00,00,80,00,00,
0,00000380,false,Rx,0,8,B0,80,00,76,20,00,00,FE,
0,00000380,false,Rx,0,8,B0,80,00,76,20,00,00,FE,
84000,00000588,false,Rx,0,8,0B,00,72,00,00,80,00,00,
0,00000380,false,Rx,0,8,B0,80,00,76,20,00,00,FE,
0,00000380,false,Rx,0,8,B0,80,00,76,20,00,00,FE,
0,00000284,false,Rx,0,6,07,07,00,00,00,00,00,00,
0,00000380,false,Rx,0,8,B0,80,00,76,20,00,00,FE,
0,00000380,false,Rx,0,8,B0,80,00,76,20,00,00,FE,
121000,00000588,false,Rx,0,8,0B,00,72,00,00,80,00,00,
0,00000380,false,Rx,0,8,B0,80,00,76,20,00,00,FE,
