Time Stamp,ID,Extended,Dir,Bus,LEN,D1,D2,D3,D4,D5,D6,D7,D8
0,00000280,false,Rx,0,8,B3,8D,00,00,23,FA,1A,23,
0,00000288,false,Rx,0,8,E8,5B,D5,00,00,6B,57,8C,
0,00000380,false,Rx,0,8,B0,80,00,76,20,00,00,FE,
0,00000488,false,Rx,0,8,4F,23,00,72,FE,FF,FF,E0,
0,00000480,false,Rx,0,8,84,2C,00,00,19,41,00,F0,
0,00000284,false,Rx,0,6,08,08,00,00,00,00,00,00,
0,00000588,false,Rx,0,8,0B,00,72,00,00,80,00,00,
982000,00000300,false,Rx,0,8,2E,5A,30,30,30,30,30,30,
0,00000280,false,Rx,0,8,B3,8D,00,00,23,FA,1A,23,
0,00000288,false,Rx,0,8,E8,5B,D5,00,00,6B,57,8C,
0,00000380,false,Rx,0,8,B0,80,00,76,20,00,00,FE,
0,00000300,false,Rx,0,8,2F,30,30,30,20,3C,20,20,
0,00000488,false,Rx,0,8,5F,23,00,72,FE,FF,FF,F0,
991000,00000300,false,Rx,0,8,20,20,20,20,3E,21,85,00,
0,00000280,false,Rx,0,8,B3,8D,00,00,23,FA,1A,23,
0,00000288,false,Rx,0,8,2C,5B,D5,00,00,6B,57,8C,
0,00000380,false,Rx,0,8,B0,80,00,76,20,00,00,FE,
0,00000488,false,Rx,0,8,50,23,00,72,FE,FF,00,00,
0,00000480,false,Rx,0,8,84,2C,00,00,19,41,00,F0,
0,00000284,false,Rx,0,6,09,09,00,00,00,00,00,00,
0,00000300,false,Rx,0,8,21,21,85,00,36,00,00,11,
0,00000588,false,Rx,0,8,0B,00,72,00,00,80,00,00,
3000,00000300,false,Rx,0,3,12,4E,4C,00,00,00,00,00,
0,00000280,false,Rx,0,8,B3,8D,00,00,23,FA,1A,23,
0,00000288,false,Rx,0,8,2C,5B,D5,00,00,6B,57,8C,
0,00000380,false,Rx,0,8,B0,80,00,76,20,00,00,FE,
0,00000488,false,Rx,0,8,BF,23,00,72,FE,FF,FF,10,
11000,00000740,false,Rx,0,1,B3,00,00,00,00,00,00,00,
0,00000280,false,Rx,0,8,B3,8D,00,00,23,FA,1A,23,
0,00000288,false,Rx,0,8,2C,5B,D5,00,00,6B,57,8C,
0,00000380,false,Rx,0,8,B0,80,00,76,20,00,00,FE,
0,00000488,false,Rx,0,8,70,23,00,72,FE,FF,00,20,
0,00000480,false,Rx,0,8,84,2C,00,00,19,41,00,F0,
0,00000284,false,Rx,0,6,0A,0A,00,00,00,00,00,00,
0,00000588,false,Rx,0,8,0B,00,72,00,00,80,00,00,
0,00000280,false,Rx,0,8,B3,8D,00,00,23,FA,1A,23,
0,00000288,false,Rx,0,8,2C,5B,D5,00,00,6B,57,8C,
0,00000380,false,Rx,0,8,B0,80,00,76,20,00,00,FE,
0,00000488,false,Rx,0,8,60,23,00,72,FE,FF,00,30,
0,00000280,false,Rx,0,8,B3,8D,00,00,23,FA,1A,23,
0,00000288,false,Rx,0,8,64,5B,D5,00,00,6B,57,8C,
0,00000380,false,Rx,0,8,B0,80,00,76,20,00,00,FE,
0,00000488,false,Rx,0,8,10,23,00,72,FE,FF,00,40,
0,00000480,false,Rx,0,8,84,2C,00,00,19,41,00,F0,
0,00000284,false,Rx,0,6,0B,0B,00,00,00,00,00,00,
0,00000588,false,Rx,0,8,0B,00,72,00,00,80,00,00,
0,00000280,false,Rx,0,8,B3,8D,00,00,23,FA,1A,23,
0,00000288,false,Rx,0,8,64,5B,D5,00,00,6B,57,8C,
0,00000380,false,Rx,0,8,B0,80,00,76,20,00,00,FE,
0,00000488,false,Rx,0,8,FF,23,00,72,FE,FF,FF,50,
0,00000280,false,Rx,0,8,B3,8D,00,00,23,FA,1A,23,
0,00000288,false,Rx,0,8,64,5B,D5,00,00,6B,57,8C,
0,00000380,false,Rx,0,8,B0,80,00,76,20,00,00,FE,
0,00000488,false,Rx,0,8,CF,23,00,72,FE,FF,FF,60,
0,00000480,false,Rx,0,8,C2,2C,00,00,19,41,00,B6,
0,00000284,false,Rx,0,6,0C,0C,00,00,00,00,00,00,
0,00000588,false,Rx,0,8,0B,00,72,00,00,80,00,00,
0,00000280,false,Rx,0,8,B3,8D,00,00,23,FA,1A,23,
0,00000288,false,Rx,0,8,64,5B,D5,00,00,6B,57,8C,
0,00000380,false,Rx,0,8,B0,80,00,76,20,00,00,FE,
0,00000488,false,Rx,0,8,DF,23,00,72,FE,FF,FF,70,
0,00000740,false,Rx,0,5,1E,00,02,21,51,00,00,00,
0,00000300,false,Rx,0,1,BF,00,00,00,00,00,00,00,
0,00000280,false,Rx,0,8,B3,8D,00,00,23,FA,1A,23,
0,00000288,false,Rx,0,8,8A,5B,D5,00,00,6B,57,8C,
0,00000380,false,Rx,0,8,B0,80,00,76,20,00,00,FE,
0,00000488,false,Rx,0,8,2F,23,00,72,FE,FF,FF,80,
0,00000480,false,Rx,0,8,C2,2C,00,00,19,41,00,B6,
0,00000284,false,Rx,0,6,0D,0D,00,00,00,00,00,00,
0,00000588,false,Rx,0,8,0B,00,72,00,00,80,00,00,
0,00000300,false,Rx,0,8,23,00,38,61,51,5F,28,57,
0,00000280,false,Rx,0,8,B3,8D,00,00,23,FA,1A,23,
0,00000288,false,Rx,0,8,8A,5B,D5,00,00,6B,57,8C,
0,00000300,false,Rx,0,8,24,56,57,58,4B,39,33,43,
0,00000380,false,Rx,0,8,B0,80,00,76,20,00,00,FE,
0,00000488,false,Rx,0,8,3F,23,00,72,FE,FF,FF,90,
93000,00000300,false,Rx,0,8,25,35,37,45,30,32,34,35,
0,00000280,false,Rx,0,8,B3,8D,00,00,23,FA,1A,23,
0,00000288,false,Rx,0,8,8A,5B,D5,00,00,6B,57,8C,
0,00000380,false,Rx,0,8,B0,80,00,76,20,00,00,FE,
0,00000488,false,Rx,0,8,0F,23,00,72,FE,FF,FF,A0,
0,00000480,false,Rx,0,8,C2,2C,00,00,19,41,00,B6,
0,00000284,false,Rx,0,6,0E,0E,00,00,00,00,00,00,
0,00000300,false,Rx,0,8,26,32,32,20,56,57,5A,43,
0,00000588,false,Rx,0,8,0B,00,72,00,00,80,00,00,
0,00000300,false,Rx,0,8,27,5A,30,30,30,30,30,30,
0,00000280,false,Rx,0,8,B3,8D,00,00,23,FA,1A,23,
0,00000288,false,Rx,0,8,8A,5B,D5,00,00,6B,57,8C,
0,00000380,false,Rx,0,8,B0,80,00,76,20,00,00,FE,
0,00000488,false,Rx,0,8,1F,23,00,72,FE,FF,FF,B0,
0,00000300,false,Rx,0,8,28,30,30,30,20,3C,20,20,
0,00000280,false,Rx,0,8,B3,8D,00,00,23,FA,1A,23,
0,00000288,false,Rx,0,8,E8,5B,D5,00,00,6B,57,8C,
0,00000380,false,Rx,0,8,B0,80,00,76,20,00,00,FE,
0,00000300,false,Rx,0,8,29,20,20,20,3E,21,85,00,
0,00000488,false,Rx,0,8,6F,23,00,72,FE,FF,FF,C0,
0,00000480,false,Rx,0,8,C2,2C,00,00,19,41,00,B6,
0,00000284,false,Rx,0,6,0F,0F,00,00,00,00,00,00,
0,00000588,false,Rx,0,8,0B,00,72,00,00,80,00,00,
0,00000300,false,Rx,0,8,2A,21,85,00,36,00,00,11,
0,00000280,false,Rx,0,8,B3,8D,00,00,23,FA,1A,23,
0,00000288,false,Rx,0,8,E8,5B,D5,00,00,6B,57,8C,
0,00000380,false,Rx,0,8,B0,80,00,76,20,00,00,FE,
0,00000488,false,Rx,0,8,7F,23,00,72,FE,FF,FF,D0,
0,00000300,false,Rx,0,3,1B,4E,4C,00,00,00,00,00,
134000,00000740,false,Rx,0,1,BC,00,00,00,00,00,00,00,
0,00000280,false,Rx,0,8,B3,8D,00,00,23,FA,1A,23,
0,00000288,false,Rx,0,8,E8,5B,D5,00,00,6B,57,8C,
0,00000380,false,Rx,0,8,B0,80,00,76,20,00,00,FE,
0,00000488,false,Rx,0,8,4F,23,00,72,FE,FF,FF,E0,
0,00000480,false,Rx,0,8,1C,2C,00,00,19,41,00,68,
0,00000284,false,Rx,0,6,00,00,00,00,00,00,00,00,
0,00000588,false,Rx,0,8,0B,00,72,00,00,80,00,00,
0,00000280,false,Rx,0,8,B3,8D,00,00,23,FA,1A,23,
0,00000288,false,Rx,0,8,E8,5B,D5,00,00,6B,57,8C,
0,00000380,false,Rx,0,8,B0,80,00,76,20,00,00,FE,
0,00000488,false,Rx,0,8,5F,23,00,72,FE,FF,FF,F0,
0,00000280,false,Rx,0,8,B3,8D,00,00,23,FA,1A,23,
0,00000288,false,Rx,0,8,2C,5B,D5,00,00,6B,57,8C,
0,00000380,false,Rx,0,8,B0,80,00,76,20,00,00,FE,
0,00000488,false,Rx,0,8,50,23,00,72,FE,FF,00,00,
0,00000480,false,Rx,0,8,1C,2C,00,00,19,41,00,68,
0,00000284,false,Rx,0,6,01,01,00,00,00,00,00,00,
0,00000588,false,Rx,0,8,0B,00,72,00,00,80,00,00,
0,00000280,false,Rx,0,8,B3,8D,00,00,23,FA,1A,23,
0,00000288,false,Rx,0,8,2C,5B,D5,00,00,6B,57,8C,
0,00000380,false,Rx,0,8,B0,80,00,76,20,00,00,FE,
0,00000488,false,Rx,0,8,BF,23,00,72,FE,FF,FF,10,
0,00000280,false,Rx,0,8,B3,8D,00,00,23,FA,1A,23,
0,00000288,false,Rx,0,8,2C,5B,D5,00,00,6B,57,8C,
0,00000380,false,Rx,0,8,B0,80,00,76,20,00,00,FE,
0,00000488,false,Rx,0,8,70,23,00,72,FE,FF,00,20,
0,00000480,false,Rx,0,8,1C,2C,00,00,19,41,00,68,
0,00000284,false,Rx,0,6,02,02,00,00,00,00,00,00,
0,00000588,false,Rx,0,8,0B,00,72,00,00,80,00,00,
0,00000280,false,Rx,0,8,B3,8D,00,00,23,FA,1A,23,
0,00000288,false,Rx,0,8,2C,5B,D5,00,00,6B,57,8C,
0,00000380,false,Rx,0,8,B0,80,00,76,20,00,00,FE,
0,00000488,false,Rx,0,8,60,23,00,72,FE,FF,00,30,
0,00000280,false,Rx,0,8,B3,8D,00,00,23,FA,1A,23,
0,00000288,false,Rx,0,8,64,5B,D5,00,00,6B,57,8C,
0,00000380,false,Rx,0,8,B0,80,00,76,20,00,00,FE,
0,00000488,false,Rx,0,8,10,23,00,72,FE,FF,00,40,
0,00000480,false,Rx,0,8,1C,2C,00,00,19,41,00,68,
0,00000284,false,Rx,0,6,03,03,00,00,00,00,00,00,
0,00000588,false,Rx,0,8,0B,00,72,00,00,80,00,00,
0,00000740,false,Rx,0,1,A3,00,00,00,00,00,00,00,
0,00000300,false,Rx,0,6,A1,0F,8A,FF,4A,FF,00,00,
0,00000280,false,Rx,0,8,B3,8D,00,00,23,FA,1A,23,
0,00000288,false,Rx,0,8,64,5B,D5,00,00,6B,57,8C,
0,00000380,false,Rx,0,8,B0,80,00,76,20,00,00,FE,
0,00000488,false,Rx,0,8,FF,23,00,72,FE,FF,FF,50,
212000,00000740,false,Rx,0,5,1F,00,02,21,51,00,00,00,
0,00000300,false,Rx,0,1,B0,00,00,00,00,00,00,00,
0,00000280,false,Rx,0,8,B3,8D,00,00,23,FA,1A,23,
0,00000288,false,Rx,0,8,64,5B,D5,00,00,6B,57,8C,
0,00000380,false,Rx,0,8,B0,80,00,76,20,00,00,FE,
0,00000488,false,Rx,0,8,CF,23,00,72,FE,FF,FF,60,
0,00000480,false,Rx,0,8,54,2C,00,00,19,41,00,20,
0,00000284,false,Rx,0,6,04,04,00,00,00,00,00,00,
0,00000588,false,Rx,0,8,0B,00,72,00,00,80,00,00,
220000,00000300,false,Rx,0,8,2C,00,38,61,51,5F,28,57,
0,00000280,false,Rx,0,8,B3,8D,00,00,23,FA,1A,23,
0,00000288,false,Rx,0,8,64,5B,D5,00,00,6B,57,8C,
0,00000300,false,Rx,0,8,2D,56,57,58,4B,39,33,43,
0,00000380,false,Rx,0,8,B0,80,00,76,20,00,00,FE,
228000,00000488,false,Rx,0,8,DF,23,00,72,FE,FF,FF,70,
232000,00000300,false,Rx,0,8,2E,35,37,45,30,32,34,35,
0,00000280,false,Rx,0,8,B3,8D,00,00,23,FA,1A,23,
0,00000288,false,Rx,0,8,8A,5B,D5,00,00,6B,57,8C,
0,00000380,false,Rx,0,8,B0,80,00,76,20,00,00,FE,
0,00000488,false,Rx,0,8,2F,23,00,72,FE,FF,FF,80,
0,00000480,false,Rx,0,8,54,2C,00,00,19,41,00,20,
0,00000284,false,Rx,0,6,05,05,00,00,00,00,00,00,
0,00000300,false,Rx,0,8,2F,32,32,20,56,57,5A,43,
0,00000588,false,Rx,0,8,0B,00,72,00,00,80,00,00,
245000,00000300,false,Rx,0,8,20,5A,30,30,30,30,30,30,
0,00000280,false,Rx,0,8,B3,8D,00,00,23,FA,1A,23,
0,00000288,false,Rx,0,8,8A,5B,D5,00,00,6B,57,8C,
0,00000380,false,Rx,0,8,B0,80,00,76,20,00,00,FE,
0,00000488,false,Rx,0,8,3F,23,00,72,FE,FF,FF,90,
253000,00000300,false,Rx,0,8,21,30,30,30,20,3C,20,20,
0,00000280,false,Rx,0,8,B3,8D,00,00,23,FA,1A,23,
0,00000288,false,Rx,0,8,8A,5B,D5,00,00,6B,57,8C,
0,00000380,false,Rx,0,8,B0,80,00,76,20,00,00,FE,
0,00000300,false,Rx,0,8,22,20,20,20,3E,21,85,00,
0,00000488,false,Rx,0,8,0F,23,00,72,FE,FF,FF,A0,
0,00000480,false,Rx,0,8,54,2C,00,00,19,41,00,20,
0,00000284,false,Rx,0,6,06,06,00,00,00,00,00,00,
0,00000588,false,Rx,0,8,0B,00,72,00,00,80,00,00,
0,00000300,false,Rx,0,8,23,21,85,00,36,00,00,11,
0,00000280,false,Rx,0,8,B3,8D,00,00,23,FA,1A,23,
0,00000288,false,Rx,0,8,8A,5B,D5,00,00,6B,57,8C,
0,00000380,false,Rx,0,8,B0,80,00,76,20,00,00,FE,
0,00000488,false,Rx,0,8,1F,23,00,72,FE,FF,FF,B0,
0,00000300,false,Rx,0,3,14,4E,4C,00,00,00,00,00,
273000,00000740,false,Rx,0,1,B5,00,00,00,00,00,00,00,
0,00000280,false,Rx,0,8,B3,8D,00,00,23,FA,1A,23,
0,00000288,false,Rx,0,8,E8,5B,D5,00,00,6B,57,8C,
0,00000380,false,Rx,0,8,B0,80,00,76,20,00,00,FE,
0,00000488,false,Rx,0,8,6F,23,00,72,FE,FF,FF,C0,
0,00000480,false,Rx,0,8,54,2C,00,00,19,41,00,20,
0,00000284,false,Rx,0,6,07,07,00,00,00,00,00,00,
0,00000588,false,Rx,0,8,0B,00,72,00,00,80,00,00,
0,00000280,false,Rx,0,8,B3,8D,00,00,23,FA,1A,23,
0,00000288,false,Rx,0,8,E8,5B,D5,00,00,6B,57,8C,
0,00000380,false,Rx,0,8,B0,80,00,76,20,00,00,FE,
0,00000488,false,Rx,0,8,7F,23,00,72,FE,FF,FF,D0,
0,00000280,false,Rx,0,8,B3,8D,00,00,23,FA,1A,23,
0,00000288,false,Rx,0,8,E8,5B,D5,00,00,6B,57,8C,
0,00000380,false,Rx,0,8,B0,80,00,76,20,00,00,FE,
0,00000488,false,Rx,0,8,4F,23,00,72,FE,FF,FF,E0,
0,00000480,false,Rx,0,8,84,2C,00,00,19,41,00,F0,
0,00000284,false,Rx,0,6,08,08,00,00,00,00,00,00,
0,00000588,false,Rx,0,8,0B,00,72,00,00,80,00,00,
0,00000280,false,Rx,0,8,B3,8D,00,00,23,FA,1A,23,
0,00000288,false,Rx,0,8,E8,5B,D5,00,00,6B,57,8C,
0,00000380,false,Rx,0,8,B0,80,00,76,20,00,00,FE,
310000,00000488,false,Rx,0,8,5F,23,00,72,FE,FF,FF,F0,
0,00000280,false,Rx,0,8,B3,8D,00,00,23,FA,1A,23,
0,00000288,false,Rx,0,8,2C,5B,D5,00,00,6B,57,8C,
0,00000380,false,Rx,0,8,B0,80,00,76,20,00,00,FE,
0,00000488,false,Rx,0,8,50,23,00,72,FE,FF,00,00,
0,00000480,false,Rx,0,8,84,2C,00,00,19,41,00,F0,
0,00000284,false,Rx,0,6,09,09,00,00,00,00,00,00,
323000,00000588,false,Rx,0,8,0B,00,72,00,00,80,00,00,
0,00000280,false,Rx,0,8,B3,8D,00,00,23,FA,1A,23,
0,00000288,false,Rx,0,8,2C,5B,D5,00,00,6B,57,8C,
0,00000380,false,Rx,0,8,B0,80,00,76,20,00,00,FE,
0,00000488,false,Rx,0,8,BF,23,00,72,FE,FF,FF,10,
0,00000280,false,Rx,0,8,B3,8D,00,00,23,FA,1A,23,
0,00000288,false,Rx,0,8,2C,5B,D5,00,00,6B,57,8C,
0,00000380,false,Rx,0,8,B0,80,00,76,20,00,00,FE,
0,00000488,false,Rx,0,8,70,23,00,72,FE,FF,00,20,
0,00000480,false,Rx,0,8,84,2C,00,00,19,41,00,F0,
0,00000284,false,Rx,0,6,0A,0A,00,00,00,00,00,00,
0,00000588,false,Rx,0,8,0B,00,72,00,00,80,00,00,
0,00000740,false,Rx,0,5,10,00,02,21,51,00,00,00,
0,00000300,false,Rx,0,1,B1,00,00,00,00,00,00,00,
0,00000280,false,Rx,0,8,B3,8D,00,00,23,FA,1A,23,
0,00000288,false,Rx,0,8,2C,5B,D5,00,00,6B,57,8C,
0,00000380,false,Rx,0,8,B0,80,00,76,20,00,00,FE,
0,00000488,false,Rx,0,8,60,23,00,72,FE,FF,00,30,
351000,00000300,false,Rx,0,8,25,00,38,61,51,5F,28,57,
355000,00000280,false,Rx,0,8,B3,8D,00,00,23,FA,1A,23,
0,00000288,false,Rx,0,8,64,5B,D5,00,00,6B,57,8C,
0,00000300,false,Rx,0,8,26,56,57,58,4B,39,33,43,
0,00000380,false,Rx,0,8,B0,80,00,76,20,00,00,FE,
0,00000488,false,Rx,0,8,10,23,00,72,FE,FF,00,40,
0,00000480,false,Rx,0,8,84,2C,00,00,19,41,00,F0,
0,00000284,false,Rx,0,6,0B,0B,00,00,00,00,00,00,
0,00000588,false,Rx,0,8,0B,00,72,00,00,80,00,00,
364000,00000300,false,Rx,0,8,27,35,37,45,30,32,34,35,
0,00000280,false,Rx,0,8,B3,8D,00,00,23,FA,1A,23,
0,00000288,false,Rx,0,8,64,5B,D5,00,00,6B,57,8C,
0,00000380,false,Rx,0,8,B0,80,00,76,20,00,00,FE,
0,00000488,false,Rx,0,8,FF,23,00,72,FE,FF,FF,50,
368000,00000300,false,Rx,0,8,28,32,32,20,56,57,5A,43,
0,00000300,false,Rx,0,8,29,5A,30,30,30,30,30,30,
0,00000280,false,Rx,0,8,B3,8D,00,00,23,FA,1A,23,
0,00000288,false,Rx,0,8,64,5B,D5,00,00,6B,57,8C,
0,00000380,false,Rx,0,8,B0,80,00,76,20,00,00,FE,
0,00000488,false,Rx,0,8,CF,23,00,72,FE,FF,FF,60,
0,00000480,false,Rx,0,8,C2,2C,00,00,19,41,00,B6,
0,00000284,false,Rx,0,6,0C,0C,00,00,00,00,00,00,
0,00000588,false,Rx,0,8,0B,00,72,00,00,80,00,00,
0,00000300,false,Rx,0,8,2A,30,30,30,20,3C,20,20,
0,00000280,false,Rx,0,8,B3,8D,00,00,23,FA,1A,23,
0,00000288,false,Rx,0,8,64,5B,D5,00,00,6B,57,8C,
0,00000380,false,Rx,0,8,B0,80,00,76,20,00,00,FE,
0,00000300,false,Rx,0,8,2B,20,20,20,3E,21,85,00,
388000,00000488,false,Rx,0,8,DF,23,00,72,FE,FF,FF,70,
392000,00000300,false,Rx,0,8,2C,21,85,00,36,00,00,11,
0,00000280,false,Rx,0,8,B3,8D,00,00,23,FA,1A,23,
0,00000288,false,Rx,0,8,8A,5B,D5,00,00,6B,57,8C,
0,00000380,false,Rx,0,8,B0,80,00,76,20,00,00,FE,
0,00000488,false,Rx,0,8,2F,23,00,72,FE,FF,FF,80,
0,00000300,false,Rx,0,3,1D,4E,4C,00,00,00,00,00,
0,00000480,false,Rx,0,8,C2,2C,00,00,19,41,00,B6,
0,00000284,false,Rx,0,6,0D,0D,00,00,00,00,00,00,
0,00000588,false,Rx,0,8,0B,00,72,00,00,80,00,00,
405000,00000740,false,Rx,0,1,BE,00,00,00,00,00,00,00,
0,00000280,false,Rx,0,8,B3,8D,00,00,23,FA,1A,23,
0,00000288,false,Rx,0,8,8A,5B,D5,00,00,6B,57,8C,
0,00000380,false,Rx,0,8,B0,80,00,76,20,00,00,FE,
0,00000488,false,Rx,0,8,3F,23,00,72,FE,FF,FF,90,
0,00000280,false,Rx,0,8,B3,8D,00,00,23,FA,1A,23,
0,00000288,false,Rx,0,8,8A,5B,D5,00,00,6B,57,8C,
0,00000380,false,Rx,0,8,B0,80,00,76,20,00,00,FE,
0,00000488,false,Rx,0,8,0F,23,00,72,FE,FF,FF,A0,
0,00000480,false,Rx,0,8,C2,2C,00,00,19,41,00,B6,
0,00000284,false,Rx,0,6,0E,0E,00,00,00,00,00,00,
0,00000588,false,Rx,0,8,0B,00,72,00,00,80,00,00,
0,00000280,false,Rx,0,8,B3,8D,00,00,23,FA,1A,23,
0,00000288,false,Rx,0,8,8A,5B,D5,00,00,6B,57,8C,
0,00000380,false,Rx,0,8,B0,80,00,76,20,00,00,FE,
0,00000488,false,Rx,0,8,1F,23,00,72,FE,FF,FF,B0,
0,00000280,false,Rx,0,8,B3,8D,00,00,23,FA,1A,23,
0,00000288,false,Rx,0,8,E8,5B,D5,00,00,6B,57,8C,
0,00000380,false,Rx,0,8,B0,80,00,76,20,00,00,FE,
0,00000488,false,Rx,0,8,6F,23,00,72,FE,FF,FF,C0,
0,00000480,false,Rx,0,8,C2,2C,00,00,19,41,00,B6,
0,00000284,false,Rx,0,6,0F,0F,00,00,00,00,00,00,
0,00000588,false,Rx,0,8,0B,00,72,00,00,80,00,00,
0,00000280,false,Rx,0,8,B3,8D,00,00,23,FA,1A,23,
0,00000288,false,Rx,0,8,E8,5B,D5,00,00,6B,57,8C,
0,00000380,false,Rx,0,8,B0,80,00,76,20,00,00,FE,
0,00000488,false,Rx,0,8,7F,23,00,72,FE,FF,FF,D0,
0,00000280,false,Rx,0,8,B3,8D,00,00,23,FA,1A,23,
0,00000288,false,Rx,0,8,E8,5B,D5,00,00,6B,57,8C,
0,00000380,false,Rx,0,8,B0,80,00,76,20,00,00,FE,
0,00000488,false,Rx,0,8,4F,23,00,72,FE,FF,FF,E0,
0,00000480,false,Rx,0,8,1C,2C,00,00,19,41,00,68,
0,00000284,false,Rx,0,6,00,00,00,00,00,00,00,00,
0,00000588,false,Rx,0,8,0B,00,72,00,00,80,00,00,
0,00000740,false,Rx,0,5,11,00,02,21,51,00,00,00,
0,00000300,false,Rx,0,1,B2,00,00,00,00,00,00,00,
0,00000280,false,Rx,0,8,B3,8D,00,00,23,FA,1A,23,
0,00000288,false,Rx,0,8,E8,5B,D5,00,00,6B,57,8C,
0,00000380,false,Rx,0,8,B0,80,00,76,20,00,00,FE,
0,00000488,false,Rx,0,8,5F,23,00,72,FE,FF,FF,F0,
0,00000300,false,Rx,0,8,2E,00,38,61,51,5F,28,57,
0,00000280,false,Rx,0,8,B3,8D,00,00,23,FA,1A,23,
0,00000288,false,Rx,0,8,2C,5B,D5,00,00,6B,57,8C,
0,00000300,false,Rx,0,8,2F,56,57,58,4B,39,33,43,
0,00000380,false,Rx,0,8,B0,80,00,76,20,00,00,FE,
0,00000488,false,Rx,0,8,50,23,00,72,FE,FF,00,00,
0,00000480,false,Rx,0,8,1C,2C,00,00,19,41,00,68,
0,00000284,false,Rx,0,6,01,01,00,00,00,00,00,00,
0,00000588,false,Rx,0,8,0B,00,72,00,00,80,00,00,
0,00000300,false,Rx,0,8,20,35,37,45,30,32,34,35,
0,00000280,false,Rx,0,8,B3,8D,00,00,23,FA,1A,23,
0,00000288,false,Rx,0,8,2C,5B,D5,00,00,6B,57,8C,
0,00000380,false,Rx,0,8,B0,80,00,76,20,00,00,FE,
0,00000488,false,Rx,0,8,BF,23,00,72,FE,FF,FF,10,
0,00000300,false,Rx,0,8,21,32,32,20,56,57,5A,43,
495000,00000300,false,Rx,0,8,22,5A,30,30,30,30,30,30,
0,00000280,false,Rx,0,8,B3,8D,00,00,23,FA,1A,23,
0,00000288,false,Rx,0,8,2C,5B,D5,00,00,6B,57,8C,
0,00000380,false,Rx,0,8,B0,80,00,76,20,00,00,FE,
0,00000488,false,Rx,0,8,70,23,00,72,FE,FF,00,20,
0,00000480,false,Rx,0,8,1C,2C,00,00,19,41,00,68,
0,00000284,false,Rx,0,6,02,02,00,00,00,00,00,00,
0,00000588,false,Rx,0,8,0B,00,72,00,00,80,00,00,
503000,00000300,false,Rx,0,8,23,30,30,30,20,3C,20,20,
0,00000280,false,Rx,0,8,B3,8D,00,00,23,FA,1A,23,
0,00000288,false,Rx,0,8,2C,5B,D5,00,00,6B,57,8C,
0,00000380,false,Rx,0,8,B0,80,00,76,20,00,00,FE,
0,00000300,false,Rx,0,8,24,20,20,20,3E,21,85,00,
0,00000488,false,Rx,0,8,60,23,00,72,FE,FF,00,30,
515000,00000300,false,Rx,0,8,25,21,85,00,36,00,00,11,
0,00000280,false,Rx,0,8,B3,8D,00,00,23,FA,1A,23,
0,00000288,false,Rx,0,8,64,5B,D5,00,00,6B,57,8C,
0,00000380,false,Rx,0,8,B0,80,00,76,20,00,00,FE,
0,00000488,false,Rx,0,8,10,23,00,72,FE,FF,00,40,
0,00000480,false,Rx,0,8,1C,2C,00,00,19,41,00,68,
0,00000284,false,Rx,0,6,03,03,00,00,00,00,00,00,
0,00000300,false,Rx,0,3,16,4E,4C,00,00,00,00,00,
0,00000588,false,Rx,0,8,0B,00,72,00,00,80,00,00,
523000,00000740,false,Rx,0,1,B7,00,00,00,00,00,00,00,
0,00000280,false,Rx,0,8,B3,8D,00,00,23,FA,1A,23,
0,00000288,false,Rx,0,8,64,5B,D5,00,00,6B,57,8C,
0,00000380,false,Rx,0,8,B0,80,00,76,20,00,00,FE,
0,00000488,false,Rx,0,8,FF,23,00,72,FE,FF,FF,50,
0,00000280,false,Rx,0,8,B3,8D,00,00,23,FA,1A,23,
0,00000288,false,Rx,0,8,64,5B,D5,00,00,6B,57,8C,
0,00000380,false,Rx,0,8,B0,80,00,76,20,00,00,FE,
0,00000488,false,Rx,0,8,CF,23,00,72,FE,FF,FF,60,
0,00000480,false,Rx,0,8,54,2C,00,00,19,41,00,20,
0,00000284,false,Rx,0,6,04,04,00,00,00,00,00,00,
0,00000588,false,Rx,0,8,0B,00,72,00,00,80,00,00,
0,00000280,false,Rx,0,8,B3,8D,00,00,23,FA,1A,23,
0,00000288,false,Rx,0,8,64,5B,D5,00,00,6B,57,8C,
0,00000380,false,Rx,0,8,B0,80,00,76,20,00,00,FE,
0,00000488,false,Rx,0,8,DF,23,00,72,FE,FF,FF,70,
0,00000280,false,Rx,0,8,B3,8D,00,00,23,FA,1A,23,
0,00000288,false,Rx,0,8,8A,5B,D5,00,00,6B,57,8C,
0,00000380,false,Rx,0,8,B0,80,00,76,20,00,00,FE,
0,00000488,false,Rx,0,8,2F,23,00,72,FE,FF,FF,80,
0,00000480,false,Rx,0,8,54,2C,00,00,19,41,00,20,
0,00000284,false,Rx,0,6,05,05,00,00,00,00,00,00,
560000,00000588,false,Rx,0,8,0B,00,72,00,00,80,00,00,
0,00000280,false,Rx,0,8,B3,8D,00,00,23,FA,1A,23,
0,00000288,false,Rx,0,8,8A,5B,D5,00,00,6B,57,8C,
0,00000380,false,Rx,0,8,B0,80,00,76,20,00,00,FE,
0,00000488,false,Rx,0,8,3F,23,00,72,FE,FF,FF,90,
0,00000280,false,Rx,0,8,B3,8D,00,00,23,FA,1A,23,
0,00000288,false,Rx,0,8,8A,5B,D5,00,00,6B,57,8C,
0,00000380,false,Rx,0,8,B0,80,00,76,20,00,00,FE,
0,00000488,false,Rx,0,8,0F,23,00,72,FE,FF,FF,A0,
0,00000480,false,Rx,0,8,54,2C,00,00,19,41,00,20,
0,00000284,false,Rx,0,6,06,06,00,00,00,00,00,00,
0,00000588,false,Rx,0,8,0B,00,72,00,00,80,00,00,
0,00000280,false,Rx,0,8,B3,8D,00,00,23,FA,1A,23,
0,00000288,false,Rx,0,8,8A,5B,D5,00,00,6B,57,8C,
0,00000380,false,Rx,0,8,B0,80,00,76,20,00,00,FE,
0,00000488,false,Rx,0,8,1F,23,00,72,FE,FF,FF,B0,
0,00000740,false,Rx,0,5,12,00,02,21,51,00,00,00,
0,00000300,false,Rx,0,1,B3,00,00,00,00,00,00,00,
0,00000280,false,Rx,0,8,B3,8D,00,00,23,FA,1A,23,
0,00000288,false,Rx,0,8,E8,5B,D5,00,00,6B,57,8C,
0,00000380,false,Rx,0,8,B0,80,00,76,20,00,00,FE,
0,00000488,false,Rx,0,8,6F,23,00,72,FE,FF,FF,C0,
0,00000300,false,Rx,0,8,27,00,38,61,51,5F,28,57,
0,00000480,false,Rx,0,8,54,2C,00,00,19,41,00,20,
0,00000284,false,Rx,0,6,07,07,00,00,00,00,00,00,
601000,00000588,false,Rx,0,8,0B,00,72,00,00,80,00,00,
605000,00000300,false,Rx,0,8,28,56,57,58,4B,39,33,43,
0,00000280,false,Rx,0,8,B3,8D,00,00,23,FA,1A,23,
0,00000288,false,Rx,0,8,E8,5B,D5,00,00,6B,57,8C,
0,00000380,false,Rx,0,8,B0,80,00,76,20,00,00,FE,
0,00000488,false,Rx,0,8,7F,23,00,72,FE,FF,FF,D0,
613000,00000300,false,Rx,0,8,29,35,37,45,30,32,34,35,
0,00000280,false,Rx,0,8,B3,8D,00,00,23,FA,1A,23,
0,00000288,false,Rx,0,8,E8,5B,D5,00,00,6B,57,8C,
0,00000380,false,Rx,0,8,B0,80,00,76,20,00,00,FE,
0,00000300,false,Rx,0,8,2A,32,32,20,56,57,5A,43,
0,00000488,false,Rx,0,8,4F,23,00,72,FE,FF,FF,E0,
0,00000480,false,Rx,0,8,84,2C,00,00,19,41,00,F0,
0,00000284,false,Rx,0,6,08,08,00,00,00,00,00,00,
0,00000588,false,Rx,0,8,0B,00,72,00,00,80,00,00,
0,00000300,false,Rx,0,8,2B,5A,30,30,30,30,30,30,
0,00000280,false,Rx,0,8,B3,8D,00,00,23,FA,1A,23,
0,00000288,false,Rx,0,8,E8,5B,D5,00,00,6B,57,8C,
0,00000380,false,Rx,0,8,B0,80,00,76,20,00,00,FE,
0,00000488,false,Rx,0,8,5F,23,00,72,FE,FF,FF,F0,
630000,00000300,false,Rx,0,8,2C,30,30,30,20,3C,20,20,
0,00000300,false,Rx,0,8,2D,20,20,20,3E,21,85,00,
0,00000280,false,Rx,0,8,B3,8D,00,00,23,FA,1A,23,
0,00000288,false,Rx,0,8,2C,5B,D5,00,00,6B,57,8C,
0,00000380,false,Rx,0,8,B0,80,00,76,20,00,00,FE,
0,00000488,false,Rx,0,8,50,23,00,72,FE,FF,00,00,
0,00000480,false,Rx,0,8,84,2C,00,00,19,41,00,F0,
0,00000284,false,Rx,0,6,09,09,00,00,00,00,00,00,
0,00000588,false,Rx,0,8,0B,00,72,00,00,80,00,00,
0,00000300,false,Rx,0,8,2E,21,85,00,36,00,00,11,
0,00000280,false,Rx,0,8,B3,8D,00,00,23,FA,1A,23,
0,00000288,false,Rx,0,8,2C,5B,D5,00,00,6B,57,8C,
0,00000300,false,Rx,0,3,1F,4E,4C,00,00,00,00,00,
0,00000380,false,Rx,0,8,B0,80,00,76,20,00,00,FE,
0,00000488,false,Rx,0,8,BF,23,00,72,FE,FF,FF,10,
654000,00000740,false,Rx,0,1,B0,00,00,00,00,00,00,00,
0,00000280,false,Rx,0,8,B3,8D,00,00,23,FA,1A,23,
0,00000288,false,Rx,0,8,2C,5B,D5,00,00,6B,57,8C,
0,00000380,false,Rx,0,8,B0,80,00,76,20,00,00,FE,
0,00000488,false,Rx,0,8,70,23,00,72,FE,FF,00,20,
0,00000480,false,Rx,0,8,84,2C,00,00,19,41,00,F0,
0,00000284,false,Rx,0,6,0A,0A,00,00,00,00,00,00,
663000,00000588,false,Rx,0,8,0B,00,72,00,00,80,00,00,
0,00000280,false,Rx,0,8,B3,8D,00,00,23,FA,1A,23,
0,00000288,false,Rx,0,8,2C,5B,D5,00,00,6B,57,8C,
0,00000380,false,Rx,0,8,B0,80,00,76,20,00,00,FE,
0,00000488,false,Rx,0,8,60,23,00,72,FE,FF,00,30,
0,00000280,false,Rx,0,8,B3,8D,00,00,23,FA,1A,23,
0,00000288,false,Rx,0,8,64,5B,D5,00,00,6B,57,8C,
0,00000380,false,Rx,0,8,B0,80,00,76,20,00,00,FE,
0,00000488,false,Rx,0,8,10,23,00,72,FE,FF,00,40,
0,00000480,false,Rx,0,8,84,2C,00,00,19,41,00,F0,
0,00000284,false,Rx,0,6,0B,0B,00,00,00,00,00,00,
683000,00000588,false,Rx,0,8,0B,00,72,00,00,80,00,00,
0,00000280,false,Rx,0,8,B3,8D,00,00,23,FA,1A,23,
0,00000288,false,Rx,0,8,64,5B,D5,00,00,6B,57,8C,
0,00000380,false,Rx,0,8,B0,80,00,76,20,00,00,FE,
691000,00000488,false,Rx,0,8,FF,23,00,72,FE,FF,FF,50,
0,00000280,false,Rx,0,8,B3,8D,00,00,23,FA,1A,23,
0,00000288,false,Rx,0,8,64,5B,D5,00,00,6B,57,8C,
0,00000380,false,Rx,0,8,B0,80,00,76,20,00,00,FE,
0,00000488,false,Rx,0,8,CF,23,00,72,FE,FF,FF,60,
0,00000480,false,Rx,0,8,C2,2C,00,00,19,41,00,B6,
0,00000284,false,Rx,0,6,0C,0C,00,00,00,00,00,00,
0,00000588,false,Rx,0,8,0B,00,72,00,00,80,00,00,
0,00000280,false,Rx,0,8,B3,8D,00,00,23,FA,1A,23,
0,00000288,false,Rx,0,8,64,5B,D5,00,00,6B,57,8C,
0,00000380,false,Rx,0,8,B0,80,00,76,20,00,00,FE,
0,00000488,false,Rx,0,8,DF,23,00,72,FE,FF,FF,70,
716000,00000740,false,Rx,0,1,A3,00,00,00,00,00,00,00,
0,00000280,false,Rx,0,8,B3,8D,00,00,23,FA,1A,23,
0,00000288,false,Rx,0,8,8A,5B,D5,00,00,6B,57,8C,
0,00000300,false,Rx,0,6,A1,0F,8A,FF,4A,FF,00,00,
0,00000380,false,Rx,0,8,B0,80,00,76,20,00,00,FE,
0,00000488,false,Rx,0,8,2F,23,00,72,FE,FF,FF,80,
0,00000480,false,Rx,0,8,C2,2C,00,00,19,41,00,B6,
0,00000284,false,Rx,0,6,0D,0D,00,00,00,00,00,00,
724000,00000588,false,Rx,0,8,0B,00,72,00,00,80,00,00,
0,00000280,false,Rx,0,8,B3,8D,00,00,23,FA,1A,23,
0,00000288,false,Rx,0,8,8A,5B,D5,00,00,6B,57,8C,
0,00000380,false,Rx,0,8,B0,80,00,76,20,00,00,FE,
0,00000488,false,Rx,0,8,3F,23,00,72,FE,FF,FF,90,
0,00000740,false,Rx,0,5,13,00,02,21,51,00,00,00,
0,00000300,false,Rx,0,1,B4,00,00,00,00,00,00,00,
736000,00000280,false,Rx,0,8,B3,8D,00,00,23,FA,1A,23,
0,00000288,false,Rx,0,8,8A,5B,D5,00,00,6B,57,8C,
0,00000380,false,Rx,0,8,B0,80,00,76,20,00,00,FE,
0,00000300,false,Rx,0,8,20,00,38,61,51,5F,28,57,
0,00000488,false,Rx,0,8,0F,23,00,72,FE,FF,FF,A0,
0,00000480,false,Rx,0,8,C2,2C,00,00,19,41,00,B6,
0,00000284,false,Rx,0,6,0E,0E,00,00,00,00,00,00,
0,00000588,false,Rx,0,8,0B,00,72,00,00,80,00,00,
745000,00000300,false,Rx,0,8,21,56,57,58,4B,39,33,43,
0,00000280,false,Rx,0,8,B3,8D,00,00,23,FA,1A,23,
0,00000288,false,Rx,0,8,8A,5B,D5,00,00,6B,57,8C,
0,00000380,false,Rx,0,8,B0,80,00,76,20,00,00,FE,
0,00000488,false,Rx,0,8,1F,23,00,72,FE,FF,FF,B0,
0,00000300,false,Rx,0,8,22,35,37,45,30,32,34,35,
0,00000300,false,Rx,0,8,23,32,32,20,56,57,5A,43,
0,00000280,false,Rx,0,8,B3,8D,00,00,23,FA,1A,23,
0,00000288,false,Rx,0,8,E8,5B,D5,00,00,6B,57,8C,
0,00000380,false,Rx,0,8,B0,80,00,76,20,00,00,FE,
0,00000488,false,Rx,0,8,6F,23,00,72,FE,FF,FF,C0,
0,00000480,false,Rx,0,8,C2,2C,00,00,19,41,00,B6,
0,00000284,false,Rx,0,6,0F,0F,00,00,00,00,00,00,
0,00000588,false,Rx,0,8,0B,00,72,00,00,80,00,00,
0,00000300,false,Rx,0,8,24,5A,30,30,30,30,30,30,
0,00000280,false,Rx,0,8,B3,8D,00,00,23,FA,1A,23,
0,00000288,false,Rx,0,8,E8,5B,D5,00,00,6B,57,8C,
0,00000380,false,Rx,0,8,B0,80,00,76,20,00,00,FE,
0,00000300,false,Rx,0,8,25,30,30,30,20,3C,20,20,
769000,00000488,false,Rx,0,8,7F,23,00,72,FE,FF,FF,D0,
773000,00000300,false,Rx,0,8,26,20,20,20,3E,21,85,00,
0,00000280,false,Rx,0,8,B3,8D,00,00,23,FA,1A,23,
0,00000288,false,Rx,0,8,E8,5B,D5,00,00,6B,57,8C,
0,00000380,false,Rx,0,8,B0,80,00,76,20,00,00,FE,
0,00000488,false,Rx,0,8,4F,23,00,72,FE,FF,FF,E0,
0,00000480,false,Rx,0,8,1C,2C,00,00,19,41,00,68,
0,00000284,false,Rx,0,6,00,00,00,00,00,00,00,00,
0,00000300,false,Rx,0,8,27,21,85,00,36,00,00,11,
781000,00000588,false,Rx,0,8,0B,00,72,00,00,80,00,00,
786000,00000300,false,Rx,0,3,18,4E,4C,00,00,00,00,00,
0,00000280,false,Rx,0,8,B3,8D,00,00,23,FA,1A,23,
0,00000288,false,Rx,0,8,E8,5B,D5,00,00,6B,57,8C,
0,00000380,false,Rx,0,8,B0,80,00,76,20,00,00,FE,
0,00000488,false,Rx,0,8,5F,23,00,72,FE,FF,FF,F0,
0,00000740,false,Rx,0,1,B9,00,00,00,00,00,00,00,
0,00000280,false,Rx,0,8,B3,8D,00,00,23,FA,1A,23,
0,00000288,false,Rx,0,8,2C,5B,D5,00,00,6B,57,8C,
0,00000380,false,Rx,0,8,B0,80,00,76,20,00,00,FE,
0,00000488,false,Rx,0,8,50,23,00,72,FE,FF,00,00,
0,00000480,false,Rx,0,8,1C,2C,00,00,19,41,00,68,
0,00000284,false,Rx,0,6,01,01,00,00,00,00,00,00,
0,00000588,false,Rx,0,8,0B,00,72,00,00,80,00,00,
0,00000280,false,Rx,0,8,B3,8D,00,00,23,FA,1A,23,
0,00000288,false,Rx,0,8,2C,5B,D5,00,00,6B,57,8C,
0,00000380,false,Rx,0,8,B0,80,00,76,20,00,00,FE,
0,00000488,false,Rx,0,8,BF,23,00,72,FE,FF,FF,10,
0,00000280,false,Rx,0,8,B3,8D,00,00,23,FA,1A,23,
0,00000288,false,Rx,0,8,2C,5B,D5,00,00,6B,57,8C,
0,00000380,false,Rx,0,8,B0,80,00,76,20,00,00,FE,
0,00000488,false,Rx,0,8,70,23,00,72,FE,FF,00,20,
0,00000480,false,Rx,0,8,1C,2C,00,00,19,41,00,68,
0,00000284,false,Rx,0,6,02,02,00,00,00,00,00,00,
0,00000588,false,Rx,0,8,0B,00,72,00,00,80,00,00,
827000,00000280,false,Rx,0,8,B3,8D,00,00,23,FA,1A,23,
0,00000288,false,Rx,0,8,2C,5B,D5,00,00,6B,57,8C,
0,00000380,false,Rx,0,8,B0,80,00,76,20,00,00,FE,
0,00000488,false,Rx,0,8,60,23,00,72,FE,FF,00,30,
0,00000280,false,Rx,0,8,B3,8D,00,00,23,FA,1A,23,
0,00000288,false,Rx,0,8,64,5B,D5,00,00,6B,57,8C,
0,00000380,false,Rx,0,8,B0,80,00,76,20,00,00,FE,
0,00000488,false,Rx,0,8,10,23,00,72,FE,FF,00,40,
0,00000480,false,Rx,0,8,1C,2C,00,00,19,41,00,68,
0,00000284,false,Rx,0,6,03,03,00,00,00,00,00,00,
0,00000588,false,Rx,0,8,0B,00,72,00,00,80,00,00,
0,00000280,false,Rx,0,8,B3,8D,00,00,23,FA,1A,23,
0,00000288,false,Rx,0,8,64,5B,D5,00,00,6B,57,8C,
0,00000380,false,Rx,0,8,B0,80,00,76,20,00,00,FE,
0,00000488,false,Rx,0,8,FF,23,00,72,FE,FF,FF,50,
0,00000740,false,Rx,0,5,14,00,02,21,51,00,00,00,
0,00000300,false,Rx,0,1,B5,00,00,00,00,00,00,00,
0,00000280,false,Rx,0,8,B3,8D,00,00,23,FA,1A,23,
0,00000288,false,Rx,0,8,64,5B,D5,00,00,6B,57,8C,
0,00000380,false,Rx,0,8,B0,80,00,76,20,00,00,FE,
0,00000488,false,Rx,0,8,CF,23,00,72,FE,FF,FF,60,
0,00000480,false,Rx,0,8,54,2C,00,00,19,41,00,20,
0,00000284,false,Rx,0,6,04,04,00,00,00,00,00,00,
0,00000588,false,Rx,0,8,0B,00,72,00,00,80,00,00,
0,00000300,false,Rx,0,8,29,00,38,61,51,5F,28,57,
0,00000280,false,Rx,0,8,B3,8D,00,00,23,FA,1A,23,
0,00000288,false,Rx,0,8,64,5B,D5,00,00,6B,57,8C,
0,00000300,false,Rx,0,8,2A,56,57,58,4B,39,33,43,
0,00000380,false,Rx,0,8,B0,80,00,76,20,00,00,FE,
0,00000488,false,Rx,0,8,DF,23,00,72,FE,FF,FF,70,
876000,00000300,false,Rx,0,8,2B,35,37,45,30,32,34,35,
0,00000280,false,Rx,0,8,B3,8D,00,00,23,FA,1A,23,
0,00000288,false,Rx,0,8,8A,5B,D5,00,00,6B,57,8C,
0,00000380,false,Rx,0,8,B0,80,00,76,20,00,00,FE,
0,00000488,false,Rx,0,8,2F,23,00,72,FE,FF,FF,80,
0,00000300,false,Rx,0,8,2C,32,32,20,56,57,5A,43,
0,00000480,false,Rx,0,8,54,2C,00,00,19,41,00,20,
0,00000284,false,Rx,0,6,05,05,00,00,00,00,00,00,
0,00000588,false,Rx,0,8,0B,00,72,00,00,80,00,00,
0,00000300,false,Rx,0,8,2D,5A,30,30,30,30,30,30,
0,00000280,false,Rx,0,8,B3,8D,00,00,23,FA,1A,23,
0,00000288,false,Rx,0,8,8A,5B,D5,00,00,6B,57,8C,
0,00000380,false,Rx,0,8,B0,80,00,76,20,00,00,FE,
0,00000488,false,Rx,0,8,3F,23,00,72,FE,FF,FF,90,
892000,00000300,false,Rx,0,8,2E,30,30,30,20,3C,20,20,
0,00000280,false,Rx,0,8,B3,8D,00,00,23,FA,1A,23,
0,00000288,false,Rx,0,8,8A,5B,D5,00,00,6B,57,8C,
0,00000380,false,Rx,0,8,B0,80,00,76,20,00,00,FE,
0,00000300,false,Rx,0,8,2F,20,20,20,3E,21,85,00,
0,00000488,false,Rx,0,8,0F,23,00,72,FE,FF,FF,A0,
0,00000480,false,Rx,0,8,54,2C,00,00,19,41,00,20,
0,00000284,false,Rx,0,6,06,06,00,00,00,00,00,00,
0,00000588,false,Rx,0,8,0B,00,72,00,00,80,00,00,
0,00000300,false,Rx,0,8,20,21,85,00,36,00,00,11,
0,00000280,false,Rx,0,8,B3,8D,00,00,23,FA,1A,23,
0,00000288,false,Rx,0,8,8A,5B,D5,00,00,6B,57,8C,
0,00000380,false,Rx,0,8,B0,80,00,76,20,00,00,FE,
0,00000488,false,Rx,0,8,1F,23,00,72,FE,FF,FF,B0,
912000,00000300,false,Rx,0,3,11,4E,4C,00,00,00,00,00,
0,00000740,false,Rx,0,1,B2,00,00,00,00,00,00,00,
0,00000280,false,Rx,0,8,B3,8D,00,00,23,FA,1A,23,
0,00000288,false,Rx,0,8,E8,5B,D5,00,00,6B,57,8C,
0,00000380,false,Rx,0,8,B0,80,00,76,20,00,00,FE,
0,00000488,false,Rx,0,8,6F,23,00,72,FE,FF,FF,C0,
0,00000480,false,Rx,0,8,54,2C,00,00,19,41,00,20,
0,00000284,false,Rx,0,6,07,07,00,00,00,00,00,00,
0,00000588,false,Rx,0,8,0B,00,72,00,00,80,00,00,
0,00000280,false,Rx,0,8,B3,8D,00,00,23,FA,1A,23,
0,00000288,false,Rx,0,8,E8,5B,D5,00,00,6B,57,8C,
0,00000380,false,Rx,0,8,B0,80,00,76,20,00,00,FE,
0,00000488,false,Rx,0,8,7F,23,00,72,FE,FF,FF,D0,
0,00000280,false,Rx,0,8,B3,8D,00,00,23,FA,1A,23,
0,00000288,false,Rx,0,8,E8,5B,D5,00,00,6B,57,8C,
0,00000380,false,Rx,0,8,B0,80,00,76,20,00,00,FE,
0,00000488,false,Rx,0,8,4F,23,00,72,FE,FF,FF,E0,
0,00000480,false,Rx,0,8,84,2C,00,00,19,41,00,F0,
0,00000284,false,Rx,0,6,08,08,00,00,00,00,00,00,
941000,00000588,false,Rx,0,8,0B,00,72,00,00,80,00,00,
0,00000280,false,Rx,0,8,B3,8D,00,00,23,FA,1A,23,
0,00000288,false,Rx,0,8,E8,5B,D5,00,00,6B,57,8C,
0,00000380,false,Rx,0,8,B0,80,00,76,20,00,00,FE,
0,00000488,false,Rx,0,8,5F,23,00,72,FE,FF,FF,F0,
0,00000280,false,Rx,0,8,B3,8D,00,00,23,FA,1A,23,
0,00000288,false,Rx,0,8,2C,5B,D5,00,00,6B,57,8C,
0,00000380,false,Rx,0,8,B0,80,00,76,20,00,00,FE,
0,00000488,false,Rx,0,8,50,23,00,72,FE,FF,00,00,
0,00000480,false,Rx,0,8,84,2C,00,00,19,41,00,F0,
0,00000284,false,Rx,0,6,09,09,00,00,00,00,00,00,
0,00000588,false,Rx,0,8,0B,00,72,00,00,80,00,00,
0,00000280,false,Rx,0,8,B3,8D,00,00,23,FA,1A,23,
0,00000288,false,Rx,0,8,2C,5B,D5,00,00,6B,57,8C,
0,00000380,false,Rx,0,8,B0,80,00,76,20,00,00,FE,
0,00000488,false,Rx,0,8,BF,23,00,72,FE,FF,FF,10,
974000,00000580,false,Rx,0,8,8E,00,00,14,1C,93,48,14,
0,00000740,false,Rx,0,5,15,00,02,21,51,00,00,00,
0,00000280,false,Rx,0,8,B3,8D,00,00,23,FA,1A,23,
0,00000288,false,Rx,0,8,2C,5B,D5,00,00,6B,57,8C,
0,00000300,false,Rx,0,1,B6,00,00,00,00,00,00,00,
0,00000380,false,Rx,0,8,B0,80,00,76,20,00,00,FE,
0,00000488,false,Rx,0,8,70,23,00,72,FE,FF,00,20,
0,00000480,false,Rx,0,8,84,2C,00,00,19,41,00,F0,
0,00000284,false,Rx,0,6,0A,0A,00,00,00,00,00,00,
0,00000588,false,Rx,0,8,0B,00,72,00,00,80,00,00,
0,00000280,false,Rx,0,8,B3,8D,00,00,23,FA,1A,23,
0,00000288,false,Rx,0,8,2C,5B,D5,00,00,6B,57,8C,
0,00000380,false,Rx,0,8,B0,80,00,76,20,00,00,FE,
0,00000300,false,Rx,0,8,22,00,38,61,51,5F,28,57,
990000,00000488,false,Rx,0,8,60,23,00,72,FE,FF,00,30,
994000,00000300,false,Rx,0,8,23,56,57,58,4B,39,33,43,
0,00000280,false,Rx,0,8,B3,8D,00,00,23,FA,1A,23,
0,00000288,false,Rx,0,8,64,5B,D5,00,00,6B,57,8C,
0,00000380,false,Rx,0,8,B0,80,00,76,20,00,00,FE,
0,00000488,false,Rx,0,8,10,23,00,72,FE,FF,00,40,
0,00000300,false,Rx,0,8,24,35,37,45,30,32,34,35,
0,00000480,false,Rx,0,8,84,2C,00,00,19,41,00,F0,
0,00000284,false,Rx,0,6,0B,0B,00,00,00,00,00,00,
0,00000588,false,Rx,0,8,0B,00,72,00,00,80,00,00,
0,00000300,false,Rx,0,8,25,32,32,20,56,57,5A,43,
0,00000280,false,Rx,0,8,B3,8D,00,00,23,FA,1A,23,
0,00000288,false,Rx,0,8,64,5B,D5,00,00,6B,57,8C,
0,00000380,false,Rx,0,8,B0,80,00,76,20,00,00,FE,
0,00000488,false,Rx,0,8,FF,23,00,72,FE,FF,FF,50,
15000,00000300,false,Rx,0,8,26,5A,30,30,30,30,30,30,
0,00000280,false,Rx,0,8,B3,8D,00,00,23,FA,1A,23,
0,00000288,false,Rx,0,8,64,5B,D5,00,00,6B,57,8C,
0,00000380,false,Rx,0,8,B0,80,00,76,20,00,00,FE,
0,00000300,false,Rx,0,8,27,30,30,30,20,3C,20,20,
0,00000488,false,Rx,0,8,CF,23,00,72,FE,FF,FF,60,
0,00000480,false,Rx,0,8,C2,2C,00,00,19,41,00,B6,
0,00000284,false,Rx,0,6,0C,0C,00,00,00,00,00,00,
0,00000588,false,Rx,0,8,0B,00,72,00,00,80,00,00,
0,00000300,false,Rx,0,8,28,20,20,20,3E,21,85,00,
0,00000280,false,Rx,0,8,B3,8D,00,00,23,FA,1A,23,
0,00000288,false,Rx,0,8,64,5B,D5,00,00,6B,57,8C,
0,00000380,false,Rx,0,8,B0,80,00,76,20,00,00,FE,
0,00000488,false,Rx,0,8,DF,23,00,72,FE,FF,FF,70,
0,00000300,false,Rx,0,8,29,21,85,00,36,00,00,11,
35000,00000300,false,Rx,0,3,1A,4E,4C,00,00,00,00,00,
0,00000280,false,Rx,0,8,B3,8D,00,00,23,FA,1A,23,
0,00000288,false,Rx,0,8,8A,5B,D5,00,00,6B,57,8C,
0,00000380,false,Rx,0,8,B0,80,00,76,20,00,00,FE,
0,00000488,false,Rx,0,8,2F,23,00,72,FE,FF,FF,80,
0,00000480,false,Rx,0,8,C2,2C,00,00,19,41,00,B6,
0,00000284,false,Rx,0,6,0D,0D,00,00,00,00,00,00,
0,00000588,false,Rx,0,8,0B,00,72,00,00,80,00,00,
0,00000740,false,Rx,0,1,BB,00,00,00,00,00,00,00,
0,00000280,false,Rx,0,8,B3,8D,00,00,23,FA,1A,23,
0,00000288,false,Rx,0,8,8A,5B,D5,00,00,6B,57,8C,
0,00000380,false,Rx,0,8,B0,80,00,76,20,00,00,FE,
0,00000488,false,Rx,0,8,3F,23,00,72,FE,FF,FF,90,
0,00000280,false,Rx,0,8,B3,8D,00,00,23,FA,1A,23,
0,00000288,false,Rx,0,8,8A,5B,D5,00,00,6B,57,8C,
0,00000380,false,Rx,0,8,B0,80,00,76,20,00,00,FE,
0,00000488,false,Rx,0,8,0F,23,00,72,FE,FF,FF,A0,
0,00000480,false,Rx,0,8,C2,2C,00,00,19,41,00,B6,
0,00000284,false,Rx,0,6,0E,0E,00,00,00,00,00,00,
64000,00000588,false,Rx,0,8,0B,00,72,00,00,80,00,00,
0,00000280,false,Rx,0,8,B3,8D,00,00,23,FA,1A,23,
0,00000288,false,Rx,0,8,8A,5B,D5,00,00,6B,57,8C,
0,00000380,false,Rx,0,8,B0,80,00,76,20,00,00,FE,
72000,00000488,false,Rx,0,8,1F,23,00,72,FE,FF,FF,B0,
0,00000280,false,Rx,0,8,B3,8D,00,00,23,FA,1A,23,
0,00000288,false,Rx,0,8,E8,5B,D5,00,00,6B,57,8C,
0,00000380,false,Rx,0,8,B0,80,00,76,20,00,00,FE,
0,00000488,false,Rx,0,8,6F,23,00,72,FE,FF,FF,C0,
0,00000480,false,Rx,0,8,C2,2C,00,00,19,41,00,B6,
0,00000284,false,Rx,0,6,0F,0F,00,00,00,00,00,00,
84000,00000588,false,Rx,0,8,0B,00,72,00,00,80,00,00,
0,00000280,false,Rx,0,8,B3,8D,00,00,23,FA,1A,23,
0,00000288,false,Rx,0,8,E8,5B,D5,00,00,6B,57,8C,
0,00000380,false,Rx,0,8,B0,80,00,76,20,00,00,FE,
0,00000488,false,Rx,0,8,7F,23,00,72,FE,FF,FF,D0,
0,00000280,false,Rx,0,8,B3,8D,00,00,23,FA,1A,23,
0,00000288,false,Rx,0,8,E8,5B,D5,00,00,6B,57,8C,
0,00000380,false,Rx,0,8,B0,80,00,76,20,00,00,FE,
0,00000488,false,Rx,0,8,4F,23,00,72,FE,FF,FF,E0,
0,00000480,false,Rx,0,8,1C,2C,00,00,19,41,00,68,
0,00000284,false,Rx,0,6,00,00,00,00,00,00,00,00,
0,00000588,false,Rx,0,8,0B,00,72,00,00,80,00,00,
0,00000740,false,Rx,0,5,16,00,02,21,51,00,00,00,
0,00000300,false,Rx,0,1,B7,00,00,00,00,00,00,00,
0,00000280,false,Rx,0,8,B3,8D,00,00,23,FA,1A,23,
0,00000288,false,Rx,0,8,E8,5B,D5,00,00,6B,57,8C,
0,00000380,false,Rx,0,8,B0,80,00,76,20,00,00,FE,
0,00000488,false,Rx,0,8,5F,23,00,72,FE,FF,FF,F0,
113000,00000300,false,Rx,0,8,2B,00,38,61,51,5F,28,57,
117000,00000280,false,Rx,0,8,B3,8D,00,00,23,FA,1A,23,
0,00000288,false,Rx,0,8,2C,5B,D5,00,00,6B,57,8C,
0,00000380,false,Rx,0,8,B0,80,00,76,20,00,00,FE,
0,00000300,false,Rx,0,8,2C,56,57,58,4B,39,33,43,
0,00000488,false,Rx,0,8,50,23,00,72,FE,FF,00,00,
0,00000480,false,Rx,0,8,1C,2C,00,00,19,41,00,68,
0,00000284,false,Rx,0,6,01,01,00,00,00,00,00,00,
0,00000588,false,Rx,0,8,0B,00,72,00,00,80,00,00,
126000,00000300,false,Rx,0,8,2D,35,37,45,30,32,34,35,
0,00000280,false,Rx,0,8,B3,8D,00,00,23,FA,1A,23,
0,00000288,false,Rx,0,8,2C,5B,D5,00,00,6B,57,8C,
0,00000380,false,Rx,0,8,B0,80,00,76,20,00,00,FE,
0,00000488,false,Rx,0,8,BF,23,00,72,FE,FF,FF,10,
0,00000300,false,Rx,0,8,2E,32,32,20,56,57,5A,43,
0,00000300,false,Rx,0,8,2F,5A,30,30,30,30,30,30,
0,00000280,false,Rx,0,8,B3,8D,00,00,23,FA,1A,23,
0,00000288,false,Rx,0,8,2C,5B,D5,00,00,6B,57,8C,
0,00000380,false,Rx,0,8,B0,80,00,76,20,00,00,FE,
0,00000488,false,Rx,0,8,70,23,00,72,FE,FF,00,20,
0,00000480,false,Rx,0,8,1C,2C,00,00,19,41,00,68,
0,00000284,false,Rx,0,6,02,02,00,00,00,00,00,00,
0,00000588,false,Rx,0,8,0B,00,72,00,00,80,00,00,
0,00000300,false,Rx,0,8,20,30,30,30,20,3C,20,20,
0,00000280,false,Rx,0,8,B3,8D,00,00,23,FA,1A,23,
0,00000288,false,Rx,0,8,2C,5B,D5,00,00,6B,57,8C,
0,00000380,false,Rx,0,8,B0,80,00,76,20,00,00,FE,
0,00000300,false,Rx,0,8,21,20,20,20,3E,21,85,00,
150000,00000488,false,Rx,0,8,60,23,00,72,FE,FF,00,30,
154000,00000300,false,Rx,0,8,22,21,85,00,36,00,00,11,
0,00000280,false,Rx,0,8,B3,8D,00,00,23,FA,1A,23,
0,00000288,false,Rx,0,8,64,5B,D5,00,00,6B,57,8C,
0,00000380,false,Rx,0,8,B0,80,00,76,20,00,00,FE,
0,00000488,false,Rx,0,8,10,23,00,72,FE,FF,00,40,
0,00000300,false,Rx,0,3,13,4E,4C,00,00,00,00,00,
0,00000480,false,Rx,0,8,1C,2C,00,00,19,41,00,68,
0,00000284,false,Rx,0,6,03,03,00,00,00,00,00,00,
0,00000588,false,Rx,0,8,0B,00,72,00,00,80,00,00,
167000,00000740,false,Rx,0,1,B4,00,00,00,00,00,00,00,
0,00000280,false,Rx,0,8,B3,8D,00,00,23,FA,1A,23,
0,00000288,false,Rx,0,8,64,5B,D5,00,00,6B,57,8C,
0,00000380,false,Rx,0,8,B0,80,00,76,20,00,00,FE,
0,00000488,false,Rx,0,8,FF,23,00,72,FE,FF,FF,50,
0,00000280,false,Rx,0,8,B3,8D,00,00,23,FA,1A,23,
0,00000288,false,Rx,0,8,64,5B,D5,00,00,6B,57,8C,
0,00000380,false,Rx,0,8,B0,80,00,76,20,00,00,FE,
0,00000488,false,Rx,0,8,CF,23,00,72,FE,FF,FF,60,
0,00000480,false,Rx,0,8,54,2C,00,00,19,41,00,20,
0,00000284,false,Rx,0,6,04,04,00,00,00,00,00,00,
0,00000588,false,Rx,0,8,0B,00,72,00,00,80,00,00,
0,00000280,false,Rx,0,8,B3,8D,00,00,23,FA,1A,23,
0,00000288,false,Rx,0,8,64,5B,D5,00,00,6B,57,8C,
0,00000380,false,Rx,0,8,B0,80,00,76,20,00,00,FE,
0,00000488,false,Rx,0,8,DF,23,00,72,FE,FF,FF,70,
0,00000280,false,Rx,0,8,B3,8D,00,00,23,FA,1A,23,
0,00000288,false,Rx,0,8,8A,5B,D5,00,00,6B,57,8C,
0,00000380,false,Rx,0,8,B0,80,00,76,20,00,00,FE,
0,00000488,false,Rx,0,8,2F,23,00,72,FE,FF,FF,80,
0,00000480,false,Rx,0,8,54,2C,00,00,19,41,00,20,
0,00000284,false,Rx,0,6,05,05,00,00,00,00,00,00,
0,00000588,false,Rx,0,8,0B,00,72,00,00,80,00,00,
207000,00000280,false,Rx,0,8,B3,8D,00,00,23,FA,1A,23,
0,00000288,false,Rx,0,8,8A,5B,D5,00,00,6B,57,8C,
0,00000380,false,Rx,0,8,B0,80,00,76,20,00,00,FE,
0,00000488,false,Rx,0,8,3F,23,00,72,FE,FF,FF,90,
0,00000280,false,Rx,0,8,B3,8D,00,00,23,FA,1A,23,
0,00000288,false,Rx,0,8,8A,5B,D5,00,00,6B,57,8C,
0,00000380,false,Rx,0,8,B0,80,00,76,20,00,00,FE,
0,00000488,false,Rx,0,8,0F,23,00,72,FE,FF,FF,A0,
0,00000480,false,Rx,0,8,54,2C,00,00,19,41,00,20,
0,00000284,false,Rx,0,6,06,06,00,00,00,00,00,00,
0,00000588,false,Rx,0,8,0B,00,72,00,00,80,00,00,
0,00000280,false,Rx,0,8,B3,8D,00,00,23,FA,1A,23,
0,00000288,false,Rx,0,8,8A,5B,D5,00,00,6B,57,8C,
0,00000380,false,Rx,0,8,B0,80,00,76,20,00,00,FE,
0,00000488,false,Rx,0,8,1F,23,00,72,FE,FF,FF,B0,
0,00000740,false,Rx,0,1,A3,00,00,00,00,00,00,00,
0,00000300,false,Rx,0,6,A1,0F,8A,FF,4A,FF,00,00,
0,00000280,false,Rx,0,8,B3,8D,00,00,23,FA,1A,23,
0,00000288,false,Rx,0,8,E8,5B,D5,00,00,6B,57,8C,
0,00000380,false,Rx,0,8,B0,80,00,76,20,00,00,FE,
0,00000488,false,Rx,0,8,6F,23,00,72,FE,FF,FF,C0,
0,00000480,false,Rx,0,8,54,2C,00,00,19,41,00,20,
0,00000284,false,Rx,0,6,07,07,00,00,00,00,00,00,
0,00000588,false,Rx,0,8,0B,00,72,00,00,80,00,00,
0,00000740,false,Rx,0,5,17,00,02,21,51,00,00,00,
0,00000280,false,Rx,0,8,B3,8D,00,00,23,FA,1A,23,
0,00000288,false,Rx,0,8,E8,5B,D5,00,00,6B,57,8C,
0,00000300,false,Rx,0,1,B8,00,00,00,00,00,00,00,
0,00000380,false,Rx,0,8,B0,80,00,76,20,00,00,FE,
0,00000488,false,Rx,0,8,7F,23,00,72,FE,FF,FF,D0,
256000,00000300,false,Rx,0,8,24,00,38,61,51,5F,28,57,
0,00000280,false,Rx,0,8,B3,8D,00,00,23,FA,1A,23,
0,00000288,false,Rx,0,8,E8,5B,D5,00,00,6B,57,8C,
0,00000380,false,Rx,0,8,B0,80,00,76,20,00,00,FE,
0,00000488,false,Rx,0,8,4F,23,00,72,FE,FF,FF,E0,
0,00000300,false,Rx,0,8,25,56,57,58,4B,39,33,43,
0,00000480,false,Rx,0,8,84,2C,00,00,19,41,00,F0,
0,00000284,false,Rx,0,6,08,08,00,00,00,00,00,00,
0,00000588,false,Rx,0,8,0B,00,72,00,00,80,00,00,
0,00000300,false,Rx,0,8,26,35,37,45,30,32,34,35,
0,00000280,false,Rx,0,8,B3,8D,00,00,23,FA,1A,23,
0,00000288,false,Rx,0,8,E8,5B,D5,00,00,6B,57,8C,
0,00000380,false,Rx,0,8,B0,80,00,76,20,00,00,FE,
0,00000488,false,Rx,0,8,5F,23,00,72,FE,FF,FF,F0,
273000,00000300,false,Rx,0,8,27,32,32,20,56,57,5A,43,
0,00000280,false,Rx,0,8,B3,8D,00,00,23,FA,1A,23,
0,00000288,false,Rx,0,8,2C,5B,D5,00,00,6B,57,8C,
0,00000380,false,Rx,0,8,B0,80,00,76,20,00,00,FE,
0,00000300,false,Rx,0,8,28,5A,30,30,30,30,30,30,
0,00000488,false,Rx,0,8,50,23,00,72,FE,FF,00,00,
0,00000480,false,Rx,0,8,84,2C,00,00,19,41,00,F0,
0,00000284,false,Rx,0,6,09,09,00,00,00,00,00,00,
0,00000588,false,Rx,0,8,0B,00,72,00,00,80,00,00,
0,00000300,false,Rx,0,8,29,30,30,30,20,3C,20,20,
0,00000280,false,Rx,0,8,B3,8D,00,00,23,FA,1A,23,
0,00000288,false,Rx,0,8,2C,5B,D5,00,00,6B,57,8C,
0,00000380,false,Rx,0,8,B0,80,00,76,20,00,00,FE,
0,00000488,false,Rx,0,8,BF,23,00,72,FE,FF,FF,10,
294000,00000300,false,Rx,0,8,2A,20,20,20,3E,21,85,00,
0,00000300,false,Rx,0,8,2B,21,85,00,36,00,00,11,
0,00000280,false,Rx,0,8,B3,8D,00,00,23,FA,1A,23,
0,00000288,false,Rx,0,8,2C,5B,D5,00,00,6B,57,8C,
0,00000380,false,Rx,0,8,B0,80,00,76,20,00,00,FE,
0,00000488,false,Rx,0,8,70,23,00,72,FE,FF,00,20,
0,00000480,false,Rx,0,8,84,2C,00,00,19,41,00,F0,
0,00000284,false,Rx,0,6,0A,0A,00,00,00,00,00,00,
0,00000588,false,Rx,0,8,0B,00,72,00,00,80,00,00,
0,00000300,false,Rx,0,3,1C,4E,4C,00,00,00,00,00,
0,00000740,false,Rx,0,1,BD,00,00,00,00,00,00,00,
0,00000280,false,Rx,0,8,B3,8D,00,00,23,FA,1A,23,
0,00000288,false,Rx,0,8,2C,5B,D5,00,00,6B,57,8C,
0,00000380,false,Rx,0,8,B0,80,00,76,20,00,00,FE,
0,00000488,false,Rx,0,8,60,23,00,72,FE,FF,00,30,
0,00000280,false,Rx,0,8,B3,8D,00,00,23,FA,1A,23,
0,00000288,false,Rx,0,8,64,5B,D5,00,00,6B,57,8C,
0,00000380,false,Rx,0,8,B0,80,00,76,20,00,00,FE,
0,00000488,false,Rx,0,8,10,23,00,72,FE,FF,00,40,
0,00000480,false,Rx,0,8,84,2C,00,00,19,41,00,F0,
0,00000284,false,Rx,0,6,0B,0B,00,00,00,00,00,00,
322000,00000588,false,Rx,0,8,0B,00,72,00,00,80,00,00,
0,00000280,false,Rx,0,8,B3,8D,00,00,23,FA,1A,23,
0,00000288,false,Rx,0,8,64,5B,D5,00,00,6B,57,8C,
0,00000380,false,Rx,0,8,B0,80,00,76,20,00,00,FE,
0,00000488,false,Rx,0,8,FF,23,00,72,FE,FF,FF,50,
0,00000280,false,Rx,0,8,B3,8D,00,00,23,FA,1A,23,
0,00000288,false,Rx,0,8,64,5B,D5,00,00,6B,57,8C,
0,00000380,false,Rx,0,8,B0,80,00,76,20,00,00,FE,
0,00000488,false,Rx,0,8,CF,23,00,72,FE,FF,FF,60,
0,00000480,false,Rx,0,8,C2,2C,00,00,19,41,00,B6,
0,00000284,false,Rx,0,6,0C,0C,00,00,00,00,00,00,
0,00000588,false,Rx,0,8,0B,00,72,00,00,80,00,00,
0,00000280,false,Rx,0,8,B3,8D,00,00,23,FA,1A,23,
0,00000288,false,Rx,0,8,64,5B,D5,00,00,6B,57,8C,
0,00000380,false,Rx,0,8,B0,80,00,76,20,00,00,FE,
0,00000488,false,Rx,0,8,DF,23,00,72,FE,FF,FF,70,
0,00000280,false,Rx,0,8,B3,8D,00,00,23,FA,1A,23,
0,00000288,false,Rx,0,8,8A,5B,D5,00,00,6B,57,8C,
0,00000380,false,Rx,0,8,B0,80,00,76,20,00,00,FE,
0,00000488,false,Rx,0,8,2F,23,00,72,FE,FF,FF,80,
0,00000480,false,Rx,0,8,C2,2C,00,00,19,41,00,B6,
0,00000284,false,Rx,0,6,0D,0D,00,00,00,00,00,00,
0,00000588,false,Rx,0,8,0B,00,72,00,00,80,00,00,
367000,00000740,false,Rx,0,5,18,00,02,21,51,00,00,00,
0,00000280,false,Rx,0,8,B3,8D,00,00,23,FA,1A,23,
0,00000288,false,Rx,0,8,8A,5B,D5,00,00,6B,57,8C,
0,00000300,false,Rx,0,1,B9,00,00,00,00,00,00,00,
0,00000380,false,Rx,0,8,B0,80,00,76,20,00,00,FE,
0,00000488,false,Rx,0,8,3F,23,00,72,FE,FF,FF,90,
0,00000280,false,Rx,0,8,B3,8D,00,00,23,FA,1A,23,
0,00000288,false,Rx,0,8,8A,5B,D5,00,00,6B,57,8C,
0,00000300,false,Rx,0,8,2D,00,38,61,51,5F,28,57,
0,00000380,false,Rx,0,8,B0,80,00,76,20,00,00,FE,
0,00000488,false,Rx,0,8,0F,23,00,72,FE,FF,FF,A0,
0,00000480,false,Rx,0,8,C2,2C,00,00,19,41,00,B6,
0,00000284,false,Rx,0,6,0E,0E,00,00,00,00,00,00,
0,00000588,false,Rx,0,8,0B,00,72,00,00,80,00,00,
0,00000300,false,Rx,0,8,2E,56,57,58,4B,39,33,43,
0,00000280,false,Rx,0,8,B3,8D,00,00,23,FA,1A,23,
0,00000288,false,Rx,0,8,8A,5B,D5,00,00,6B,57,8C,
0,00000380,false,Rx,0,8,B0,80,00,76,20,00,00,FE,
0,00000488,false,Rx,0,8,1F,23,00,72,FE,FF,FF,B0,
0,00000300,false,Rx,0,8,2F,35,37,45,30,32,34,35,
0,00000300,false,Rx,0,8,20,32,32,20,56,57,5A,43,
0,00000280,false,Rx,0,8,B3,8D,00,00,23,FA,1A,23,
0,00000288,false,Rx,0,8,E8,5B,D5,00,00,6B,57,8C,
0,00000380,false,Rx,0,8,B0,80,00,76,20,00,00,FE,
0,00000488,false,Rx,0,8,6F,23,00,72,FE,FF,FF,C0,
0,00000480,false,Rx,0,8,C2,2C,00,00,19,41,00,B6,
0,00000284,false,Rx,0,6,0F,0F,00,00,00,00,00,00,
0,00000588,false,Rx,0,8,0B,00,72,00,00,80,00,00,
0,00000300,false,Rx,0,8,21,5A,30,30,30,30,30,30,
0,00000280,false,Rx,0,8,B3,8D,00,00,23,FA,1A,23,
0,00000288,false,Rx,0,8,E8,5B,D5,00,00,6B,57,8C,
0,00000380,false,Rx,0,8,B0,80,00,76,20,00,00,FE,
0,00000300,false,Rx,0,8,22,30,30,30,20,3C,20,20,
0,00000488,false,Rx,0,8,7F,23,00,72,FE,FF,FF,D0,
416000,00000300,false,Rx,0,8,23,20,20,20,3E,21,85,00,
0,00000280,false,Rx,0,8,B3,8D,00,00,23,FA,1A,23,
0,00000288,false,Rx,0,8,E8,5B,D5,00,00,6B,57,8C,
0,00000380,false,Rx,0,8,B0,80,00,76,20,00,00,FE,
0,00000488,false,Rx,0,8,4F,23,00,72,FE,FF,FF,E0,
0,00000300,false,Rx,0,8,24,21,85,00,36,00,00,11,
0,00000480,false,Rx,0,8,1C,2C,00,00,19,41,00,68,
0,00000284,false,Rx,0,6,00,00,00,00,00,00,00,00,
0,00000588,false,Rx,0,8,0B,00,72,00,00,80,00,00,
0,00000300,false,Rx,0,3,15,4E,4C,00,00,00,00,00,
0,00000280,false,Rx,0,8,B3,8D,00,00,23,FA,1A,23,
0,00000288,false,Rx,0,8,E8,5B,D5,00,00,6B,57,8C,
0,00000380,false,Rx,0,8,B0,80,00,76,20,00,00,FE,
0,00000488,false,Rx,0,8,5F,23,00,72,FE,FF,FF,F0,
0,00000740,false,Rx,0,1,B6,00,00,00,00,00,00,00,
0,00000280,false,Rx,0,8,B3,8D,00,00,23,FA,1A,23,
0,00000288,false,Rx,0,8,2C,5B,D5,00,00,6B,57,8C,
0,00000380,false,Rx,0,8,B0,80,00,76,20,00,00,FE,
0,00000488,false,Rx,0,8,50,23,00,72,FE,FF,00,00,
0,00000480,false,Rx,0,8,1C,2C,00,00,19,41,00,68,
0,00000284,false,Rx,0,6,01,01,00,00,00,00,00,00,
445000,00000588,false,Rx,0,8,0B,00,72,00,00,80,00,00,
0,00000280,false,Rx,0,8,B3,8D,00,00,23,FA,1A,23,
0,00000288,false,Rx,0,8,2C,5B,D5,00,00,6B,57,8C,
0,00000380,false,Rx,0,8,B0,80,00,76,20,00,00,FE,
453000,00000488,false,Rx,0,8,BF,23,00,72,FE,FF,FF,10,
0,00000280,false,Rx,0,8,B3,8D,00,00,23,FA,1A,23,
0,00000288,false,Rx,0,8,2C,5B,D5,00,00,6B,57,8C,
0,00000380,false,Rx,0,8,B0,80,00,76,20,00,00,FE,
0,00000488,false,Rx,0,8,70,23,00,72,FE,FF,00,20,
0,00000480,false,Rx,0,8,1C,2C,00,00,19,41,00,68,
0,00000284,false,Rx,0,6,02,02,00,00,00,00,00,00,
465000,00000588,false,Rx,0,8,0B,00,72,00,00,80,00,00,
0,00000280,false,Rx,0,8,B3,8D,00,00,23,FA,1A,23,
0,00000288,false,Rx,0,8,2C,5B,D5,00,00,6B,57,8C,
0,00000380,false,Rx,0,8,B0,80,00,76,20,00,00,FE,
0,00000488,false,Rx,0,8,60,23,00,72,FE,FF,00,30,
0,00000280,false,Rx,0,8,B3,8D,00,00,23,FA,1A,23,
0,00000288,false,Rx,0,8,64,5B,D5,00,00,6B,57,8C,
0,00000380,false,Rx,0,8,B0,80,00,76,20,00,00,FE,
0,00000488,false,Rx,0,8,10,23,00,72,FE,FF,00,40,
0,00000480,false,Rx,0,8,1C,2C,00,00,19,41,00,68,
0,00000284,false,Rx,0,6,03,03,00,00,00,00,00,00,
0,00000588,false,Rx,0,8,0B,00,72,00,00,80,00,00,
0,00000280,false,Rx,0,8,B3,8D,00,00,23,FA,1A,23,
0,00000288,false,Rx,0,8,64,5B,D5,00,00,6B,57,8C,
0,00000380,false,Rx,0,8,B0,80,00,76,20,00,00,FE,
0,00000488,false,Rx,0,8,FF,23,00,72,FE,FF,FF,50,
0,00000740,false,Rx,0,5,19,00,02,21,51,00,00,00,
0,00000300,false,Rx,0,1,BA,00,00,00,00,00,00,00,
0,00000280,false,Rx,0,8,B3,8D,00,00,23,FA,1A,23,
0,00000288,false,Rx,0,8,64,5B,D5,00,00,6B,57,8C,
0,00000380,false,Rx,0,8,B0,80,00,76,20,00,00,FE,
0,00000488,false,Rx,0,8,CF,23,00,72,FE,FF,FF,60,
0,00000300,false,Rx,0,8,26,00,38,61,51,5F,28,57,
0,00000480,false,Rx,0,8,54,2C,00,00,19,41,00,20,
0,00000284,false,Rx,0,6,04,04,00,00,00,00,00,00,
0,00000588,false,Rx,0,8,0B,00,72,00,00,80,00,00,
506000,00000300,false,Rx,0,8,27,56,57,58,4B,39,33,43,
0,00000280,false,Rx,0,8,B3,8D,00,00,23,FA,1A,23,
0,00000288,false,Rx,0,8,64,5B,D5,00,00,6B,57,8C,
0,00000380,false,Rx,0,8,B0,80,00,76,20,00,00,FE,
0,00000488,false,Rx,0,8,DF,23,00,72,FE,FF,FF,70,
515000,00000300,false,Rx,0,8,28,35,37,45,30,32,34,35,
0,00000280,false,Rx,0,8,B3,8D,00,00,23,FA,1A,23,
0,00000288,false,Rx,0,8,8A,5B,D5,00,00,6B,57,8C,
0,00000300,false,Rx,0,8,29,32,32,20,56,57,5A,43,
0,00000380,false,Rx,0,8,B0,80,00,76,20,00,00,FE,
0,00000488,false,Rx,0,8,2F,23,00,72,FE,FF,FF,80,
0,00000480,false,Rx,0,8,54,2C,00,00,19,41,00,20,
0,00000284,false,Rx,0,6,05,05,00,00,00,00,00,00,
523000,00000588,false,Rx,0,8,0B,00,72,00,00,80,00,00,
527000,00000300,false,Rx,0,8,2A,5A,30,30,30,30,30,30,
0,00000280,false,Rx,0,8,B3,8D,00,00,23,FA,1A,23,
0,00000288,false,Rx,0,8,8A,5B,D5,00,00,6B,57,8C,
0,00000380,false,Rx,0,8,B0,80,00,76,20,00,00,FE,
0,00000488,false,Rx,0,8,3F,23,00,72,FE,FF,FF,90,
531000,00000300,false,Rx,0,8,2B,30,30,30,20,3C,20,20,
0,00000300,false,Rx,0,8,2C,20,20,20,3E,21,85,00,
0,00000280,false,Rx,0,8,B3,8D,00,00,23,FA,1A,23,
0,00000288,false,Rx,0,8,8A,5B,D5,00,00,6B,57,8C,
0,00000380,false,Rx,0,8,B0,80,00,76,20,00,00,FE,
0,00000488,false,Rx,0,8,0F,23,00,72,FE,FF,FF,A0,
0,00000480,false,Rx,0,8,54,2C,00,00,19,41,00,20,
0,00000284,false,Rx,0,6,06,06,00,00,00,00,00,00,
0,00000588,false,Rx,0,8,0B,00,72,00,00,80,00,00,
543000,00000300,false,Rx,0,8,2D,21,85,00,36,00,00,11,
0,00000280,false,Rx,0,8,B3,8D,00,00,23,FA,1A,23,
0,00000288,false,Rx,0,8,8A,5B,D5,00,00,6B,57,8C,
0,00000300,false,Rx,0,3,1E,4E,4C,00,00,00,00,00,
0,00000380,false,Rx,0,8,B0,80,00,76,20,00,00,FE,
551000,00000488,false,Rx,0,8,1F,23,00,72,FE,FF,FF,B0,
556000,00000740,false,Rx,0,1,BF,00,00,00,00,00,00,00,
0,00000280,false,Rx,0,8,B3,8D,00,00,23,FA,1A,23,
0,00000288,false,Rx,0,8,E8,5B,D5,00,00,6B,57,8C,
0,00000380,false,Rx,0,8,B0,80,00,76,20,00,00,FE,
0,00000488,false,Rx,0,8,6F,23,00,72,FE,FF,FF,C0,
0,00000480,false,Rx,0,8,54,2C,00,00,19,41,00,20,
0,00000284,false,Rx,0,6,07,07,00,00,00,00,00,00,
0,00000588,false,Rx,0,8,0B,00,72,00,00,80,00,00,
0,00000280,false,Rx,0,8,B3,8D,00,00,23,FA,1A,23,
0,00000288,false,Rx,0,8,E8,5B,D5,00,00,6B,57,8C,
0,00000380,false,Rx,0,8,B0,80,00,76,20,00,00,FE,
0,00000488,false,Rx,0,8,7F,23,00,72,FE,FF,FF,D0,
0,00000280,false,Rx,0,8,B3,8D,00,00,23,FA,1A,23,
0,00000288,false,Rx,0,8,E8,5B,D5,00,00,6B,57,8C,
0,00000380,false,Rx,0,8,B0,80,00,76,20,00,00,FE,
0,00000488,false,Rx,0,8,4F,23,00,72,FE,FF,FF,E0,
0,00000480,false,Rx,0,8,84,2C,00,00,19,41,00,F0,
0,00000284,false,Rx,0,6,08,08,00,00,00,00,00,00,
0,00000588,false,Rx,0,8,0B,00,72,00,00,80,00,00,
589000,00000280,false,Rx,0,8,B3,8D,00,00,23,FA,1A,23,
0,00000288,false,Rx,0,8,E8,5B,D5,00,00,6B,57,8C,
0,00000380,false,Rx,0,8,B0,80,00,76,20,00,00,FE,
0,00000488,false,Rx,0,8,5F,23,00,72,FE,FF,FF,F0,
0,00000280,false,Rx,0,8,B3,8D,00,00,23,FA,1A,23,
0,00000288,false,Rx,0,8,2C,5B,D5,00,00,6B,57,8C,
0,00000380,false,Rx,0,8,B0,80,00,76,20,00,00,FE,
0,00000488,false,Rx,0,8,50,23,00,72,FE,FF,00,00,
0,00000480,false,Rx,0,8,84,2C,00,00,19,41,00,F0,
0,00000284,false,Rx,0,6,09,09,00,00,00,00,00,00,
0,00000588,false,Rx,0,8,0B,00,72,00,00,80,00,00,
0,00000280,false,Rx,0,8,B3,8D,00,00,23,FA,1A,23,
0,00000288,false,Rx,0,8,2C,5B,D5,00,00,6B,57,8C,
0,00000380,false,Rx,0,8,B0,80,00,76,20,00,00,FE,
0,00000488,false,Rx,0,8,BF,23,00,72,FE,FF,FF,10,
0,00000280,false,Rx,0,8,B3,8D,00,00,23,FA,1A,23,
0,00000288,false,Rx,0,8,2C,5B,D5,00,00,6B,57,8C,
0,00000380,false,Rx,0,8,B0,80,00,76,20,00,00,FE,
0,00000488,false,Rx,0,8,70,23,00,72,FE,FF,00,20,
0,00000740,false,Rx,0,5,1A,00,02,21,51,00,00,00,
0,00000300,false,Rx,0,1,BB,00,00,00,00,00,00,00,
0,00000480,false,Rx,0,8,84,2C,00,00,19,41,00,F0,
0,00000284,false,Rx,0,6,0A,0A,00,00,00,00,00,00,
0,00000588,false,Rx,0,8,0B,00,72,00,00,80,00,00,
0,00000280,false,Rx,0,8,B3,8D,00,00,23,FA,1A,23,
0,00000288,false,Rx,0,8,2C,5B,D5,00,00,6B,57,8C,
0,00000380,false,Rx,0,8,B0,80,00,76,20,00,00,FE,
0,00000300,false,Rx,0,8,2F,00,38,61,51,5F,28,57,
0,00000488,false,Rx,0,8,60,23,00,72,FE,FF,00,30,
638000,00000300,false,Rx,0,8,20,56,57,58,4B,39,33,43,
0,00000280,false,Rx,0,8,B3,8D,00,00,23,FA,1A,23,
0,00000288,false,Rx,0,8,64,5B,D5,00,00,6B,57,8C,
0,00000380,false,Rx,0,8,B0,80,00,76,20,00,00,FE,
0,00000488,false,Rx,0,8,10,23,00,72,FE,FF,00,40,
0,00000300,false,Rx,0,8,21,35,37,45,30,32,34,35,
0,00000480,false,Rx,0,8,84,2C,00,00,19,41,00,F0,
0,00000284,false,Rx,0,6,0B,0B,00,00,00,00,00,00,
0,00000588,false,Rx,0,8,0B,00,72,00,00,80,00,00,
0,00000300,false,Rx,0,8,22,32,32,20,56,57,5A,43,
0,00000280,false,Rx,0,8,B3,8D,00,00,23,FA,1A,23,
0,00000288,false,Rx,0,8,64,5B,D5,00,00,6B,57,8C,
0,00000380,false,Rx,0,8,B0,80,00,76,20,00,00,FE,
650000,00000488,false,Rx,0,8,FF,23,00,72,FE,FF,FF,50,
654000,00000300,false,Rx,0,8,23,5A,30,30,30,30,30,30,
0,00000280,false,Rx,0,8,B3,8D,00,00,23,FA,1A,23,
0,00000288,false,Rx,0,8,64,5B,D5,00,00,6B,57,8C,
0,00000380,false,Rx,0,8,B0,80,00,76,20,00,00,FE,
0,00000300,false,Rx,0,8,24,30,30,30,20,3C,20,20,
0,00000488,false,Rx,0,8,CF,23,00,72,FE,FF,FF,60,
0,00000480,false,Rx,0,8,C2,2C,00,00,19,41,00,B6,
0,00000284,false,Rx,0,6,0C,0C,00,00,00,00,00,00,
0,00000588,false,Rx,0,8,0B,00,72,00,00,80,00,00,
0,00000300,false,Rx,0,8,25,20,20,20,3E,21,85,00,
0,00000280,false,Rx,0,8,B3,8D,00,00,23,FA,1A,23,
0,00000288,false,Rx,0,8,64,5B,D5,00,00,6B,57,8C,
0,00000380,false,Rx,0,8,B0,80,00,76,20,00,00,FE,
0,00000488,false,Rx,0,8,DF,23,00,72,FE,FF,FF,70,
675000,00000300,false,Rx,0,8,26,21,85,00,36,00,00,11,
0,00000300,false,Rx,0,3,17,4E,4C,00,00,00,00,00,
0,00000280,false,Rx,0,8,B3,8D,00,00,23,FA,1A,23,
0,00000288,false,Rx,0,8,8A,5B,D5,00,00,6B,57,8C,
0,00000380,false,Rx,0,8,B0,80,00,76,20,00,00,FE,
0,00000488,false,Rx,0,8,2F,23,00,72,FE,FF,FF,80,
0,00000480,false,Rx,0,8,C2,2C,00,00,19,41,00,B6,
0,00000284,false,Rx,0,6,0D,0D,00,00,00,00,00,00,
0,00000588,false,Rx,0,8,0B,00,72,00,00,80,00,00,
0,00000740,false,Rx,0,1,B8,00,00,00,00,00,00,00,
0,00000280,false,Rx,0,8,B3,8D,00,00,23,FA,1A,23,
0,00000288,false,Rx,0,8,8A,5B,D5,00,00,6B,57,8C,
0,00000380,false,Rx,0,8,B0,80,00,76,20,00,00,FE,
0,00000488,false,Rx,0,8,3F,23,00,72,FE,FF,FF,90,
0,00000280,false,Rx,0,8,B3,8D,00,00,23,FA,1A,23,
0,00000288,false,Rx,0,8,8A,5B,D5,00,00,6B,57,8C,
0,00000380,false,Rx,0,8,B0,80,00,76,20,00,00,FE,
0,00000488,false,Rx,0,8,0F,23,00,72,FE,FF,FF,A0,
0,00000480,false,Rx,0,8,C2,2C,00,00,19,41,00,B6,
0,00000284,false,Rx,0,6,0E,0E,00,00,00,00,00,00,
703000,00000588,false,Rx,0,8,0B,00,72,00,00,80,00,00,
0,00000280,false,Rx,0,8,B3,8D,00,00,23,FA,1A,23,
0,00000288,false,Rx,0,8,8A,5B,D5,00,00,6B,57,8C,
0,00000380,false,Rx,0,8,B0,80,00,76,20,00,00,FE,
0,00000488,false,Rx,0,8,1F,23,00,72,FE,FF,FF,B0,
0,00000280,false,Rx,0,8,B3,8D,00,00,23,FA,1A,23,
0,00000288,false,Rx,0,8,E8,5B,D5,00,00,6B,57,8C,
0,00000380,false,Rx,0,8,B0,80,00,76,20,00,00,FE,
0,00000488,false,Rx,0,8,6F,23,00,72,FE,FF,FF,C0,
0,00000480,false,Rx,0,8,C2,2C,00,00,19,41,00,B6,
0,00000284,false,Rx,0,6,0F,0F,00,00,00,00,00,00,
0,00000588,false,Rx,0,8,0B,00,72,00,00,80,00,00,
0,00000280,false,Rx,0,8,B3,8D,00,00,23,FA,1A,23,
0,00000288,false,Rx,0,8,E8,5B,D5,00,00,6B,57,8C,
0,00000380,false,Rx,0,8,B0,80,00,76,20,00,00,FE,
0,00000488,false,Rx,0,8,7F,23,00,72,FE,FF,FF,D0,
0,00000280,false,Rx,0,8,B3,8D,00,00,23,FA,1A,23,
0,00000288,false,Rx,0,8,E8,5B,D5,00,00,6B,57,8C,
0,00000380,false,Rx,0,8,B0,80,00,76,20,00,00,FE,
0,00000488,false,Rx,0,8,4F,23,00,72,FE,FF,FF,E0,
0,00000480,false,Rx,0,8,1C,2C,00,00,19,41,00,68,
0,00000284,false,Rx,0,6,00,00,00,00,00,00,00,00,
0,00000588,false,Rx,0,8,0B,00,72,00,00,80,00,00,
0,00000740,false,Rx,0,1,A3,00,00,00,00,00,00,00,
0,00000300,false,Rx,0,6,A1,0F,8A,FF,4A,FF,00,00,
0,00000280,false,Rx,0,8,B3,8D,00,00,23,FA,1A,23,
0,00000288,false,Rx,0,8,E8,5B,D5,00,00,6B,57,8C,
0,00000380,false,Rx,0,8,B0,80,00,76,20,00,00,FE,
0,00000488,false,Rx,0,8,5F,23,00,72,FE,FF,FF,F0,
0,00000740,false,Rx,0,5,1B,00,02,21,51,00,00,00,
0,00000280,false,Rx,0,8,B3,8D,00,00,23,FA,1A,23,
0,00000300,false,Rx,0,1,BC,00,00,00,00,00,00,00,
0,00000288,false,Rx,0,8,2C,5B,D5,00,00,6B,57,8C,
0,00000488,false,Rx,0,8,50,23,00,72,FE,FF,00,00,
0,00000480,false,Rx,0,8,1C,2C,00,00,19,41,00,68,
0,00000284,false,Rx,0,6,01,01,00,00,00,00,00,00,
0,00000588,false,Rx,0,8,0B,00,72,00,00,80,00,00,
769000,00000280,false,Rx,0,8,B3,8D,00,00,23,FA,1A,23,
0,00000288,false,Rx,0,8,2C,5B,D5,00,00,6B,57,8C,
0,00000300,false,Rx,0,8,28,00,38,61,51,5F,28,57,
0,00000380,false,Rx,0,8,B0,80,00,76,20,00,00,FE,
0,00000488,false,Rx,0,8,BF,23,00,72,FE,FF,FF,10,
777000,00000300,false,Rx,0,8,29,56,57,58,4B,39,33,43,
0,00000280,false,Rx,0,8,B3,8D,00,00,23,FA,1A,23,
0,00000288,false,Rx,0,8,2C,5B,D5,00,00,6B,57,8C,
0,00000380,false,Rx,0,8,B0,80,00,76,20,00,00,FE,
0,00000488,false,Rx,0,8,70,23,00,72,FE,FF,00,20,
781000,00000300,false,Rx,0,8,2A,35,37,45,30,32,34,35,
0,00000480,false,Rx,0,8,1C,2C,00,00,19,41,00,68,
0,00000284,false,Rx,0,6,02,02,00,00,00,00,00,00,
0,00000588,false,Rx,0,8,0B,00,72,00,00,80,00,00,
0,00000300,false,Rx,0,8,2B,32,32,20,56,57,5A,43,
0,00000280,false,Rx,0,8,B3,8D,00,00,23,FA,1A,23,
0,00000288,false,Rx,0,8,2C,5B,D5,00,00,6B,57,8C,
0,00000380,false,Rx,0,8,B0,80,00,76,20,00,00,FE,
0,00000488,false,Rx,0,8,60,23,00,72,FE,FF,00,30,
0,00000300,false,Rx,0,8,2C,5A,30,30,30,30,30,30,
0,00000280,false,Rx,0,8,B3,8D,00,00,23,FA,1A,23,
0,00000288,false,Rx,0,8,64,5B,D5,00,00,6B,57,8C,
0,00000380,false,Rx,0,8,B0,80,00,76,20,00,00,FE,
0,00000300,false,Rx,0,8,2D,30,30,30,20,3C,20,20,
801000,00000488,false,Rx,0,8,10,23,00,72,FE,FF,00,40,
0,00000480,false,Rx,0,8,1C,2C,00,00,19,41,00,68,
0,00000284,false,Rx,0,6,03,03,00,00,00,00,00,00,
0,00000588,false,Rx,0,8,0B,00,72,00,00,80,00,00,
0,00000300,false,Rx,0,8,2E,20,20,20,3E,21,85,00,
0,00000280,false,Rx,0,8,B3,8D,00,00,23,FA,1A,23,
0,00000288,false,Rx,0,8,64,5B,D5,00,00,6B,57,8C,
0,00000380,false,Rx,0,8,B0,80,00,76,20,00,00,FE,
0,00000488,false,Rx,0,8,FF,23,00,72,FE,FF,FF,50,
0,00000300,false,Rx,0,8,2F,21,85,00,36,00,00,11,
818000,00000300,false,Rx,0,3,10,4E,4C,00,00,00,00,00,
0,00000280,false,Rx,0,8,B3,8D,00,00,23,FA,1A,23,
0,00000288,false,Rx,0,8,64,5B,D5,00,00,6B,57,8C,
0,00000380,false,Rx,0,8,B0,80,00,76,20,00,00,FE,
0,00000488,false,Rx,0,8,CF,23,00,72,FE,FF,FF,60,
0,00000740,false,Rx,0,1,B1,00,00,00,00,00,00,00,
0,00000480,false,Rx,0,8,54,2C,00,00,19,41,00,20,
0,00000284,false,Rx,0,6,04,04,00,00,00,00,00,00,
826000,00000588,false,Rx,0,8,0B,00,72,00,00,80,00,00,
0,00000280,false,Rx,0,8,B3,8D,00,00,23,FA,1A,23,
0,00000288,false,Rx,0,8,64,5B,D5,00,00,6B,57,8C,
0,00000380,false,Rx,0,8,B0,80,00,76,20,00,00,FE,
834000,00000488,false,Rx,0,8,DF,23,00,72,FE,FF,FF,70,
0,00000280,false,Rx,0,8,B3,8D,00,00,23,FA,1A,23,
0,00000288,false,Rx,0,8,8A,5B,D5,00,00,6B,57,8C,
0,00000380,false,Rx,0,8,B0,80,00,76,20,00,00,FE,
0,00000488,false,Rx,0,8,2F,23,00,72,FE,FF,FF,80,
0,00000480,false,Rx,0,8,54,2C,00,00,19,41,00,20,
0,00000284,false,Rx,0,6,05,05,00,00,00,00,00,00,
846000,00000588,false,Rx,0,8,0B,00,72,00,00,80,00,00,
0,00000280,false,Rx,0,8,B3,8D,00,00,23,FA,1A,23,
0,00000288,false,Rx,0,8,8A,5B,D5,00,00,6B,57,8C,
0,00000380,false,Rx,0,8,B0,80,00,76,20,00,00,FE,
0,00000488,false,Rx,0,8,3F,23,00,72,FE,FF,FF,90,
0,00000280,false,Rx,0,8,B3,8D,00,00,23,FA,1A,23,
0,00000288,false,Rx,0,8,8A,5B,D5,00,00,6B,57,8C,
0,00000380,false,Rx,0,8,B0,80,00,76,20,00,00,FE,
0,00000488,false,Rx,0,8,0F,23,00,72,FE,FF,FF,A0,
0,00000480,false,Rx,0,8,54,2C,00,00,19,41,00,20,
0,00000284,false,Rx,0,6,06,06,00,00,00,00,00,00,
0,00000588,false,Rx,0,8,0B,00,72,00,00,80,00,00,
0,00000280,false,Rx,0,8,B3,8D,00,00,23,FA,1A,23,
0,00000288,false,Rx,0,8,8A,5B,D5,00,00,6B,57,8C,
0,00000380,false,Rx,0,8,B0,80,00,76,20,00,00,FE,
0,00000488,false,Rx,0,8,1F,23,00,72,FE,FF,FF,B0,
0,00000280,false,Rx,0,8,B3,8D,00,00,23,FA,1A,23,
0,00000288,false,Rx,0,8,E8,5B,D5,00,00,6B,57,8C,
0,00000380,false,Rx,0,8,B0,80,00,76,20,00,00,FE,
0,00000488,false,Rx,0,8,6F,23,00,72,FE,FF,FF,C0,
0,00000480,false,Rx,0,8,54,2C,00,00,19,41,00,20,
0,00000284,false,Rx,0,6,07,07,00,00,00,00,00,00,
883000,00000588,false,Rx,0,8,0B,00,72,00,00,80,00,00,
0,00000740,false,Rx,0,5,1C,00,02,21,51,00,00,00,
0,00000300,false,Rx,0,1,BD,00,00,00,00,00,00,00,
0,00000280,false,Rx,0,8,B3,8D,00,00,23,FA,1A,23,
0,00000288,false,Rx,0,8,E8,5B,D5,00,00,6B,57,8C,
0,00000380,false,Rx,0,8,B0,80,00,76,20,00,00,FE,
0,00000488,false,Rx,0,8,7F,23,00,72,FE,FF,FF,D0,
0,00000300,false,Rx,0,8,21,00,38,61,51,5F,28,57,
0,00000300,false,Rx,0,8,22,56,57,58,4B,39,33,43,
0,00000280,false,Rx,0,8,B3,8D,00,00,23,FA,1A,23,
0,00000288,false,Rx,0,8,E8,5B,D5,00,00,6B,57,8C,
0,00000380,false,Rx,0,8,B0,80,00,76,20,00,00,FE,
0,00000488,false,Rx,0,8,4F,23,00,72,FE,FF,FF,E0,
0,00000480,false,Rx,0,8,84,2C,00,00,19,41,00,F0,
0,00000284,false,Rx,0,6,08,08,00,00,00,00,00,00,
0,00000588,false,Rx,0,8,0B,00,72,00,00,80,00,00,
904000,00000300,false,Rx,0,8,23,35,37,45,30,32,34,35,
0,00000280,false,Rx,0,8,B3,8D,00,00,23,FA,1A,23,
0,00000288,false,Rx,0,8,E8,5B,D5,00,00,6B,57,8C,
0,00000300,false,Rx,0,8,24,32,32,20,56,57,5A,43,
0,00000380,false,Rx,0,8,B0,80,00,76,20,00,00,FE,
912000,00000488,false,Rx,0,8,5F,23,00,72,FE,FF,FF,F0,
916000,00000300,false,Rx,0,8,25,5A,30,30,30,30,30,30,
0,00000280,false,Rx,0,8,B3,8D,00,00,23,FA,1A,23,
0,00000288,false,Rx,0,8,2C,5B,D5,00,00,6B,57,8C,
0,00000380,false,Rx,0,8,B0,80,00,76,20,00,00,FE,
0,00000488,false,Rx,0,8,50,23,00,72,FE,FF,00,00,
0,00000300,false,Rx,0,8,26,30,30,30,20,3C,20,20,
0,00000480,false,Rx,0,8,84,2C,00,00,19,41,00,F0,
0,00000284,false,Rx,0,6,09,09,00,00,00,00,00,00,
0,00000588,false,Rx,0,8,0B,00,72,00,00,80,00,00,
928000,00000300,false,Rx,0,8,27,20,20,20,3E,21,85,00,
0,00000280,false,Rx,0,8,B3,8D,00,00,23,FA,1A,23,
0,00000288,false,Rx,0,8,2C,5B,D5,00,00,6B,57,8C,
0,00000380,false,Rx,0,8,B0,80,00,76,20,00,00,FE,
0,00000488,false,Rx,0,8,BF,23,00,72,FE,FF,FF,10,
937000,00000300,false,Rx,0,8,28,21,85,00,36,00,00,11,
0,00000280,false,Rx,0,8,B3,8D,00,00,23,FA,1A,23,
0,00000288,false,Rx,0,8,2C,5B,D5,00,00,6B,57,8C,
0,00000300,false,Rx,0,3,19,4E,4C,00,00,00,00,00,
0,00000380,false,Rx,0,8,B0,80,00,76,20,00,00,FE,
0,00000488,false,Rx,0,8,70,23,00,72,FE,FF,00,20,
0,00000480,false,Rx,0,8,84,2C,00,00,19,41,00,F0,
0,00000284,false,Rx,0,6,0A,0A,00,00,00,00,00,00,
0,00000588,false,Rx,0,8,0B,00,72,00,00,80,00,00,
0,00000740,false,Rx,0,1,BA,00,00,00,00,00,00,00,
0,00000280,false,Rx,0,8,B3,8D,00,00,23,FA,1A,23,
0,00000288,false,Rx,0,8,2C,5B,D5,00,00,6B,57,8C,
0,00000380,false,Rx,0,8,B0,80,00,76,20,00,00,FE,
0,00000488,false,Rx,0,8,60,23,00,72,FE,FF,00,30,
0,00000280,false,Rx,0,8,B3,8D,00,00,23,FA,1A,23,
0,00000288,false,Rx,0,8,64,5B,D5,00,00,6B,57,8C,
0,00000380,false,Rx,0,8,B0,80,00,76,20,00,00,FE,
0,00000488,false,Rx,0,8,10,23,00,72,FE,FF,00,40,
0,00000480,false,Rx,0,8,84,2C,00,00,19,41,00,F0,
0,00000284,false,Rx,0,6,0B,0B,00,00,00,00,00,00,
0,00000588,false,Rx,0,8,0B,00,72,00,00,80,00,00,
0,00000280,false,Rx,0,8,B3,8D,00,00,23,FA,1A,23,
0,00000288,false,Rx,0,8,64,5B,D5,00,00,6B,57,8C,
0,00000380,false,Rx,0,8,B0,80,00,76,20,00,00,FE,
0,00000488,false,Rx,0,8,FF,23,00,72,FE,FF,FF,50,
0,00000580,false,Rx,0,8,8F,00,00,11,1F,E0,0C,46,
0,00000280,false,Rx,0,8,B3,8D,00,00,23,FA,1A,23,
0,00000288,false,Rx,0,8,64,5B,D5,00,00,6B,57,8C,
0,00000380,false,Rx,0,8,B0,80,00,76,20,00,00,FE,
0,00000488,false,Rx,0,8,CF,23,00,72,FE,FF,FF,60,
0,00000480,false,Rx,0,8,C2,2C,00,00,19,41,00,B6,
0,00000284,false,Rx,0,6,0C,0C,00,00,00,00,00,00,
0,00000588,false,Rx,0,8,0B,00,72,00,00,80,00,00,
0,00000280,false,Rx,0,8,B3,8D,00,00,23,FA,1A,23,
0,00000288,false,Rx,0,8,64,5B,D5,00,00,6B,57,8C,
0,00000380,false,Rx,0,8,B0,80,00,76,20,00,00,FE,
0,00000488,false,Rx,0,8,DF,23,00,72,FE,FF,FF,70,
0,00000280,false,Rx,0,8,B3,8D,00,00,23,FA,1A,23,
0,00000288,false,Rx,0,8,8A,5B,D5,00,00,6B,57,8C,
0,00000380,false,Rx,0,8,B0,80,00,76,20,00,00,FE,
0,00000488,false,Rx,0,8,2F,23,00,72,FE,FF,FF,80,
0,00000480,false,Rx,0,8,C2,2C,00,00,19,41,00,B6,
0,00000284,false,Rx,0,6,0D,0D,00,00,00,00,00,00,
6000,00000588,false,Rx,0,8,0B,00,72,00,00,80,00,00,
0,00000280,false,Rx,0,8,B3,8D,00,00,23,FA,1A,23,
0,00000288,false,Rx,0,8,8A,5B,D5,00,00,6B,57,8C,
0,00000380,false,Rx,0,8,B0,80,00,76,20,00,00,FE,
0,00000488,false,Rx,0,8,3F,23,00,72,FE,FF,FF,90,
0,00000740,false,Rx,0,5,1D,00,02,21,51,00,00,00,
0,00000300,false,Rx,0,1,BE,00,00,00,00,00,00,00,
0,00000280,false,Rx,0,8,B3,8D,00,00,23,FA,1A,23,
0,00000288,false,Rx,0,8,8A,5B,D5,00,00,6B,57,8C,
0,00000380,false,Rx,0,8,B0,80,00,76,20,00,00,FE,
0,00000300,false,Rx,0,8,2A,00,38,61,51,5F,28,57,
0,00000488,false,Rx,0,8,0F,23,00,72,FE,FF,FF,A0,
0,00000480,false,Rx,0,8,C2,2C,00,00,19,41,00,B6,
0,00000284,false,Rx,0,6,0E,0E,00,00,00,00,00,00,
0,00000588,false,Rx,0,8,0B,00,72,00,00,80,00,00,
0,00000300,false,Rx,0,8,2B,56,57,58,4B,39,33,43,
0,00000280,false,Rx,0,8,B3,8D,00,00,23,FA,1A,23,
0,00000288,false,Rx,0,8,8A,5B,D5,00,00,6B,57,8C,
0,00000380,false,Rx,0,8,B0,80,00,76,20,00,00,FE,
0,00000488,false,Rx,0,8,1F,23,00,72,FE,FF,FF,B0,
35000,00000300,false,Rx,0,8,2C,35,37,45,30,32,34,35,
39000,00000300,false,Rx,0,8,2D,32,32,20,56,57,5A,43,
0,00000280,false,Rx,0,8,B3,8D,00,00,23,FA,1A,23,
0,00000288,false,Rx,0,8,E8,5B,D5,00,00,6B,57,8C,
0,00000380,false,Rx,0,8,B0,80,00,76,20,00,00,FE,
0,00000488,false,Rx,0,8,6F,23,00,72,FE,FF,FF,C0,
0,00000480,false,Rx,0,8,C2,2C,00,00,19,41,00,B6,
0,00000284,false,Rx,0,6,0F,0F,00,00,00,00,00,00,
0,00000588,false,Rx,0,8,0B,00,72,00,00,80,00,00,
47000,00000300,false,Rx,0,8,2E,5A,30,30,30,30,30,30,
0,00000280,false,Rx,0,8,B3,8D,00,00,23,FA,1A,23,
0,00000288,false,Rx,0,8,E8,5B,D5,00,00,6B,57,8C,
0,00000380,false,Rx,0,8,B0,80,00,76,20,00,00,FE,
0,00000300,false,Rx,0,8,2F,30,30,30,20,3C,20,20,
0,00000488,false,Rx,0,8,7F,23,00,72,FE,FF,FF,D0,
0,00000300,false,Rx,0,8,20,20,20,20,3E,21,85,00,
0,00000280,false,Rx,0,8,B3,8D,00,00,23,FA,1A,23,
0,00000288,false,Rx,0,8,E8,5B,D5,00,00,6B,57,8C,
0,00000380,false,Rx,0,8,B0,80,00,76,20,00,00,FE,
0,00000488,false,Rx,0,8,4F,23,00,72,FE,FF,FF,E0,
0,00000300,false,Rx,0,8,21,21,85,00,36,00,00,11,
0,00000480,false,Rx,0,8,1C,2C,00,00,19,41,00,68,
0,00000284,false,Rx,0,6,00,00,00,00,00,00,00,00,
0,00000588,false,Rx,0,8,0B,00,72,00,00,80,00,00,
68000,00000300,false,Rx,0,3,12,4E,4C,00,00,00,00,00,
0,00000280,false,Rx,0,8,B3,8D,00,00,23,FA,1A,23,
0,00000288,false,Rx,0,8,E8,5B,D5,00,00,6B,57,8C,
0,00000380,false,Rx,0,8,B0,80,00,76,20,00,00,FE,
0,00000488,false,Rx,0,8,5F,23,00,72,FE,FF,FF,F0,
76000,00000740,false,Rx,0,1,B3,00,00,00,00,00,00,00,
0,00000280,false,Rx,0,8,B3,8D,00,00,23,FA,1A,23,
0,00000288,false,Rx,0,8,2C,5B,D5,00,00,6B,57,8C,
0,00000380,false,Rx,0,8,B0,80,00,76,20,00,00,FE,
0,00000488,false,Rx,0,8,50,23,00,72,FE,FF,00,00,
0,00000480,false,Rx,0,8,1C,2C,00,00,19,41,00,68,
0,00000284,false,Rx,0,6,01,01,00,00,00,00,00,00,
84000,00000588,false,Rx,0,8,0B,00,72,00,00,80,00,00,
0,00000280,false,Rx,0,8,B3,8D,00,00,23,FA,1A,23,
0,00000288,false,Rx,0,8,2C,5B,D5,00,00,6B,57,8C,
0,00000380,false,Rx,0,8,B0,80,00,76,20,00,00,FE,
0,00000488,false,Rx,0,8,BF,23,00,72,FE,FF,FF,10,
0,00000280,false,Rx,0,8,B3,8D,00,00,23,FA,1A,23,
0,00000288,false,Rx,0,8,2C,5B,D5,00,00,6B,57,8C,
0,00000380,false,Rx,0,8,B0,80,00,76,20,00,00,FE,
0,00000488,false,Rx,0,8,70,23,00,72,FE,FF,00,20,
0,00000480,false,Rx,0,8,1C,2C,00,00,19,41,00,68,
0,00000284,false,Rx,0,6,02,02,00,00,00,00,00,00,
0,00000588,false,Rx,0,8,0B,00,72,00,00,80,00,00,
0,00000280,false,Rx,0,8,B3,8D,00,00,23,FA,1A,23,
0,00000288,false,Rx,0,8,2C,5B,D5,00,00,6B,57,8C,
0,00000380,false,Rx,0,8,B0,80,00,76,20,00,00,FE,
0,00000488,false,Rx,0,8,60,23,00,72,FE,FF,00,30,
0,00000280,false,Rx,0,8,B3,8D,00,00,23,FA,1A,23,
0,00000288,false,Rx,0,8,64,5B,D5,00,00,6B,57,8C,
0,00000380,false,Rx,0,8,B0,80,00,76,20,00,00,FE,
0,00000488,false,Rx,0,8,10,23,00,72,FE,FF,00,40,
0,00000480,false,Rx,0,8,1C,2C,00,00,19,41,00,68,
0,00000284,false,Rx,0,6,03,03,00,00,00,00,00,00,
0,00000588,false,Rx,0,8,0B,00,72,00,00,80,00,00,
0,00000280,false,Rx,0,8,B3,8D,00,00,23,FA,1A,23,
0,00000288,false,Rx,0,8,64,5B,D5,00,00,6B,57,8C,
0,00000380,false,Rx,0,8,B0,80,00,76,20,00,00,FE,
0,00000488,false,Rx,0,8,FF,23,00,72,FE,FF,FF,50,
0,00000740,false,Rx,0,5,1E,00,02,21,51,00,00,00,
0,00000300,false,Rx,0,1,BF,00,00,00,00,00,00,00,
0,00000280,false,Rx,0,8,B3,8D,00,00,23,FA,1A,23,
0,00000288,false,Rx,0,8,64,5B,D5,00,00,6B,57,8C,
0,00000380,false,Rx,0,8,B0,80,00,76,20,00,00,FE,
0,00000488,false,Rx,0,8,CF,23,00,72,FE,FF,FF,60,
0,00000300,false,Rx,0,8,23,00,38,61,51,5F,28,57,
0,00000480,false,Rx,0,8,54,2C,00,00,19,41,00,20,
0,00000284,false,Rx,0,6,04,04,00,00,00,00,00,00,
0,00000588,false,Rx,0,8,0B,00,72,00,00,80,00,00,
0,00000300,false,Rx,0,8,24,56,57,58,4B,39,33,43,
0,00000280,false,Rx,0,8,B3,8D,00,00,23,FA,1A,23,
0,00000288,false,Rx,0,8,64,5B,D5,00,00,6B,57,8C,
0,00000380,false,Rx,0,8,B0,80,00,76,20,00,00,FE,
0,00000488,false,Rx,0,8,DF,23,00,72,FE,FF,FF,70,
0,00000300,false,Rx,0,8,25,35,37,45,30,32,34,35,
0,00000280,false,Rx,0,8,B3,8D,00,00,23,FA,1A,23,
0,00000288,false,Rx,0,8,8A,5B,D5,00,00,6B,57,8C,
0,00000300,false,Rx,0,8,26,32,32,20,56,57,5A,43,
0,00000380,false,Rx,0,8,B0,80,00,76,20,00,00,FE,
0,00000488,false,Rx,0,8,2F,23,00,72,FE,FF,FF,80,
0,00000480,false,Rx,0,8,54,2C,00,00,19,41,00,20,
0,00000284,false,Rx,0,6,05,05,00,00,00,00,00,00,
0,00000588,false,Rx,0,8,0B,00,72,00,00,80,00,00,
0,00000300,false,Rx,0,8,27,5A,30,30,30,30,30,30,
0,00000280,false,Rx,0,8,B3,8D,00,00,23,FA,1A,23,
0,00000288,false,Rx,0,8,8A,5B,D5,00,00,6B,57,8C,
0,00000380,false,Rx,0,8,B0,80,00,76,20,00,00,FE,
0,00000488,false,Rx,0,8,3F,23,00,72,FE,FF,FF,90,
0,00000300,false,Rx,0,8,28,30,30,30,20,3C,20,20,
178000,00000300,false,Rx,0,8,29,20,20,20,3E,21,85,00,
0,00000280,false,Rx,0,8,B3,8D,00,00,23,FA,1A,23,
0,00000288,false,Rx,0,8,8A,5B,D5,00,00,6B,57,8C,
0,00000380,false,Rx,0,8,B0,80,00,76,20,00,00,FE,
0,00000488,false,Rx,0,8,0F,23,00,72,FE,FF,FF,A0,
0,00000480,false,Rx,0,8,54,2C,00,00,19,41,00,20,
0,00000284,false,Rx,0,6,06,06,00,00,00,00,00,00,
0,00000588,false,Rx,0,8,0B,00,72,00,00,80,00,00,
0,00000300,false,Rx,0,8,2A,21,85,00,36,00,00,11,
0,00000280,false,Rx,0,8,B3,8D,00,00,23,FA,1A,23,
0,00000288,false,Rx,0,8,8A,5B,D5,00,00,6B,57,8C,
0,00000300,false,Rx,0,3,1B,4E,4C,00,00,00,00,00,
0,00000380,false,Rx,0,8,B0,80,00,76,20,00,00,FE,
0,00000488,false,Rx,0,8,1F,23,00,72,FE,FF,FF,B0,
199000,00000740,false,Rx,0,1,BC,00,00,00,00,00,00,00,
0,00000280,false,Rx,0,8,B3,8D,00,00,23,FA,1A,23,
0,00000288,false,Rx,0,8,E8,5B,D5,00,00,6B,57,8C,
0,00000380,false,Rx,0,8,B0,80,00,76,20,00,00,FE,
0,00000488,false,Rx,0,8,6F,23,00,72,FE,FF,FF,C0,
0,00000480,false,Rx,0,8,54,2C,00,00,19,41,00,20,
0,00000284,false,Rx,0,6,07,07,00,00,00,00,00,00,
207000,00000588,false,Rx,0,8,0B,00,72,00,00,80,00,00,
0,00000280,false,Rx,0,8,B3,8D,00,00,23,FA,1A,23,
0,00000288,false,Rx,0,8,E8,5B,D5,00,00,6B,57,8C,
0,00000380,false,Rx,0,8,B0,80,00,76,20,00,00,FE,
0,00000488,false,Rx,0,8,7F,23,00,72,FE,FF,FF,D0,
0,00000280,false,Rx,0,8,B3,8D,00,00,23,FA,1A,23,
0,00000288,false,Rx,0,8,E8,5B,D5,00,00,6B,57,8C,
0,00000380,false,Rx,0,8,B0,80,00,76,20,00,00,FE,
0,00000488,false,Rx,0,8,4F,23,00,72,FE,FF,FF,E0,
0,00000480,false,Rx,0,8,84,2C,00,00,19,41,00,F0,
0,00000284,false,Rx,0,6,08,08,00,00,00,00,00,00,
227000,00000588,false,Rx,0,8,0B,00,72,00,00,80,00,00,
0,00000280,false,Rx,0,8,B3,8D,00,00,23,FA,1A,23,
0,00000288,false,Rx,0,8,E8,5B,D5,00,00,6B,57,8C,
0,00000380,false,Rx,0,8,B0,80,00,76,20,00,00,FE,
0,00000488,false,Rx,0,8,5F,23,00,72,FE,FF,FF,F0,
240000,00000280,false,Rx,0,8,B3,8D,00,00,23,FA,1A,23,
0,00000288,false,Rx,0,8,2C,5B,D5,00,00,6B,57,8C,
0,00000380,false,Rx,0,8,B0,80,00,76,20,00,00,FE,
0,00000488,false,Rx,0,8,50,23,00,72,FE,FF,00,00,
0,00000480,false,Rx,0,8,84,2C,00,00,19,41,00,F0,
0,00000284,false,Rx,0,6,09,09,00,00,00,00,00,00,
0,00000588,false,Rx,0,8,0B,00,72,00,00,80,00,00,
0,00000280,false,Rx,0,8,B3,8D,00,00,23,FA,1A,23,
0,00000288,false,Rx,0,8,2C,5B,D5,00,00,6B,57,8C,
0,00000380,false,Rx,0,8,B0,80,00,76,20,00,00,FE,
0,00000488,false,Rx,0,8,BF,23,00,72,FE,FF,FF,10,
0,00000280,false,Rx,0,8,B3,8D,00,00,23,FA,1A,23,
0,00000288,false,Rx,0,8,2C,5B,D5,00,00,6B,57,8C,
0,00000380,false,Rx,0,8,B0,80,00,76,20,00,00,FE,
0,00000488,false,Rx,0,8,70,23,00,72,FE,FF,00,20,
0,00000480,false,Rx,0,8,84,2C,00,00,19,41,00,F0,
0,00000284,false,Rx,0,6,0A,0A,00,00,00,00,00,00,
0,00000588,false,Rx,0,8,0B,00,72,00,00,80,00,00,
0,00000740,false,Rx,0,1,A3,00,00,00,00,00,00,00,
0,00000300,false,Rx,0,6,A1,0F,8A,FF,4A,FF,00,00,
0,00000280,false,Rx,0,8,B3,8D,00,00,23,FA,1A,23,
0,00000288,false,Rx,0,8,2C,5B,D5,00,00,6B,57,8C,
0,00000380,false,Rx,0,8,B0,80,00,76,20,00,00,FE,
0,00000488,false,Rx,0,8,60,23,00,72,FE,FF,00,30,
277000,00000740,false,Rx,0,5,1F,00,02,21,51,00,00,00,
0,00000300,false,Rx,0,1,B0,00,00,00,00,00,00,00,
0,00000280,false,Rx,0,8,B3,8D,00,00,23,FA,1A,23,
0,00000288,false,Rx,0,8,64,5B,D5,00,00,6B,57,8C,
0,00000380,false,Rx,0,8,B0,80,00,76,20,00,00,FE,
0,00000488,false,Rx,0,8,10,23,00,72,FE,FF,00,40,
0,00000480,false,Rx,0,8,84,2C,00,00,19,41,00,F0,
0,00000284,false,Rx,0,6,0B,0B,00,00,00,00,00,00,
0,00000588,false,Rx,0,8,0B,00,72,00,00,80,00,00,
0,00000300,false,Rx,0,8,2C,00,38,61,51,5F,28,57,
0,00000280,false,Rx,0,8,B3,8D,00,00,23,FA,1A,23,
0,00000288,false,Rx,0,8,64,5B,D5,00,00,6B,57,8C,
0,00000300,false,Rx,0,8,2D,56,57,58,4B,39,33,43,
0,00000380,false,Rx,0,8,B0,80,00,76,20,00,00,FE,
293000,00000488,false,Rx,0,8,FF,23,00,72,FE,FF,FF,50,
297000,00000300,false,Rx,0,8,2E,35,37,45,30,32,34,35,
0,00000280,false,Rx,0,8,B3,8D,00,00,23,FA,1A,23,
0,00000288,false,Rx,0,8,64,5B,D5,00,00,6B,57,8C,
0,00000380,false,Rx,0,8,B0,80,00,76,20,00,00,FE,
0,00000488,false,Rx,0,8,CF,23,00,72,FE,FF,FF,60,
0,00000300,false,Rx,0,8,2F,32,32,20,56,57,5A,43,
0,00000480,false,Rx,0,8,C2,2C,00,00,19,41,00,B6,
0,00000284,false,Rx,0,6,0C,0C,00,00,00,00,00,00,
0,00000588,false,Rx,0,8,0B,00,72,00,00,80,00,00,
309000,00000300,false,Rx,0,8,20,5A,30,30,30,30,30,30,
0,00000280,false,Rx,0,8,B3,8D,00,00,23,FA,1A,23,
0,00000288,false,Rx,0,8,64,5B,D5,00,00,6B,57,8C,
0,00000380,false,Rx,0,8,B0,80,00,76,20,00,00,FE,
0,00000488,false,Rx,0,8,DF,23,00,72,FE,FF,FF,70,
317000,00000300,false,Rx,0,8,21,30,30,30,20,3C,20,20,
0,00000280,false,Rx,0,8,B3,8D,00,00,23,FA,1A,23,
0,00000288,false,Rx,0,8,8A,5B,D5,00,00,6B,57,8C,
0,00000380,false,Rx,0,8,B0,80,00,76,20,00,00,FE,
0,00000300,false,Rx,0,8,22,20,20,20,3E,21,85,00,
0,00000488,false,Rx,0,8,2F,23,00,72,FE,FF,FF,80,
0,00000480,false,Rx,0,8,C2,2C,00,00,19,41,00,B6,
0,00000284,false,Rx,0,6,0D,0D,00,00,00,00,00,00,
0,00000588,false,Rx,0,8,0B,00,72,00,00,80,00,00,
0,00000300,false,Rx,0,8,23,21,85,00,36,00,00,11,
0,00000280,false,Rx,0,8,B3,8D,00,00,23,FA,1A,23,
0,00000288,false,Rx,0,8,8A,5B,D5,00,00,6B,57,8C,
0,00000380,false,Rx,0,8,B0,80,00,76,20,00,00,FE,
0,00000488,false,Rx,0,8,3F,23,00,72,FE,FF,FF,90,
0,00000300,false,Rx,0,3,14,4E,4C,00,00,00,00,00,
338000,00000740,false,Rx,0,1,B5,00,00,00,00,00,00,00,
0,00000280,false,Rx,0,8,B3,8D,00,00,23,FA,1A,23,
0,00000288,false,Rx,0,8,8A,5B,D5,00,00,6B,57,8C,
0,00000380,false,Rx,0,8,B0,80,00,76,20,00,00,FE,
0,00000488,false,Rx,0,8,0F,23,00,72,FE,FF,FF,A0,
0,00000480,false,Rx,0,8,C2,2C,00,00,19,41,00,B6,
0,00000284,false,Rx,0,6,0E,0E,00,00,00,00,00,00,
0,00000588,false,Rx,0,8,0B,00,72,00,00,80,00,00,
0,00000280,false,Rx,0,8,B3,8D,00,00,23,FA,1A,23,
0,00000288,false,Rx,0,8,8A,5B,D5,00,00,6B,57,8C,
0,00000380,false,Rx,0,8,B0,80,00,76,20,00,00,FE,
0,00000488,false,Rx,0,8,1F,23,00,72,FE,FF,FF,B0,
0,00000280,false,Rx,0,8,B3,8D,00,00,23,FA,1A,23,
0,00000288,false,Rx,0,8,E8,5B,D5,00,00,6B,57,8C,
0,00000380,false,Rx,0,8,B0,80,00,76,20,00,00,FE,
0,00000488,false,Rx,0,8,6F,23,00,72,FE,FF,FF,C0,
0,00000480,false,Rx,0,8,C2,2C,00,00,19,41,00,B6,
0,00000284,false,Rx,0,6,0F,0F,00,00,00,00,00,00,
0,00000588,false,Rx,0,8,0B,00,72,00,00,80,00,00,
0,00000280,false,Rx,0,8,B3,8D,00,00,23,FA,1A,23,
0,00000288,false,Rx,0,8,E8,5B,D5,00,00,6B,57,8C,
0,00000380,false,Rx,0,8,B0,80,00,76,20,00,00,FE,
0,00000488,false,Rx,0,8,7F,23,00,72,FE,FF,FF,D0,
0,00000280,false,Rx,0,8,B3,8D,00,00,23,FA,1A,23,
0,00000288,false,Rx,0,8,E8,5B,D5,00,00,6B,57,8C,
0,00000380,false,Rx,0,8,B0,80,00,76,20,00,00,FE,
0,00000488,false,Rx,0,8,4F,23,00,72,FE,FF,FF,E0,
0,00000480,false,Rx,0,8,1C,2C,00,00,19,41,00,68,
0,00000284,false,Rx,0,6,00,00,00,00,00,00,00,00,
387000,00000588,false,Rx,0,8,0B,00,72,00,00,80,00,00,
0,00000280,false,Rx,0,8,B3,8D,00,00,23,FA,1A,23,
0,00000288,false,Rx,0,8,E8,5B,D5,00,00,6B,57,8C,
0,00000380,false,Rx,0,8,B0,80,00,76,20,00,00,FE,
395000,00000488,false,Rx,0,8,5F,23,00,72,FE,FF,FF,F0,
0,00000280,false,Rx,0,8,B3,8D,00,00,23,FA,1A,23,
0,00000288,false,Rx,0,8,2C,5B,D5,00,00,6B,57,8C,
0,00000380,false,Rx,0,8,B0,80,00,76,20,00,00,FE,
0,00000488,false,Rx,0,8,50,23,00,72,FE,FF,00,00,
0,00000740,false,Rx,0,5,10,00,02,21,51,00,00,00,
0,00000300,false,Rx,0,1,B1,00,00,00,00,00,00,00,
0,00000480,false,Rx,0,8,1C,2C,00,00,19,41,00,68,
0,00000284,false,Rx,0,6,01,01,00,00,00,00,00,00,
408000,00000588,false,Rx,0,8,0B,00,72,00,00,80,00,00,
0,00000280,false,Rx,0,8,B3,8D,00,00,23,FA,1A,23,
0,00000288,false,Rx,0,8,2C,5B,D5,00,00,6B,57,8C,
0,00000380,false,Rx,0,8,B0,80,00,76,20,00,00,FE,
0,00000300,false,Rx,0,8,25,00,38,61,51,5F,28,57,
416000,00000488,false,Rx,0,8,BF,23,00,72,FE,FF,FF,10,
0,00000300,false,Rx,0,8,26,56,57,58,4B,39,33,43,
0,00000280,false,Rx,0,8,B3,8D,00,00,23,FA,1A,23,
0,00000288,false,Rx,0,8,2C,5B,D5,00,00,6B,57,8C,
0,00000380,false,Rx,0,8,B0,80,00,76,20,00,00,FE,
0,00000488,false,Rx,0,8,70,23,00,72,FE,FF,00,20,
0,00000300,false,Rx,0,8,27,35,37,45,30,32,34,35,
0,00000480,false,Rx,0,8,1C,2C,00,00,19,41,00,68,
0,00000284,false,Rx,0,6,02,02,00,00,00,00,00,00,
0,00000588,false,Rx,0,8,0B,00,72,00,00,80,00,00,
0,00000300,false,Rx,0,8,28,32,32,20,56,57,5A,43,
0,00000280,false,Rx,0,8,B3,8D,00,00,23,FA,1A,23,
0,00000288,false,Rx,0,8,2C,5B,D5,00,00,6B,57,8C,
0,00000380,false,Rx,0,8,B0,80,00,76,20,00,00,FE,
432000,00000488,false,Rx,0,8,60,23,00,72,FE,FF,00,30,
436000,00000300,false,Rx,0,8,29,5A,30,30,30,30,30,30,
0,00000280,false,Rx,0,8,B3,8D,00,00,23,FA,1A,23,
0,00000288,false,Rx,0,8,64,5B,D5,00,00,6B,57,8C,
0,00000380,false,Rx,0,8,B0,80,00,76,20,00,00,FE,
0,00000300,false,Rx,0,8,2A,30,30,30,20,3C,20,20,
0,00000488,false,Rx,0,8,10,23,00,72,FE,FF,00,40,
0,00000480,false,Rx,0,8,1C,2C,00,00,19,41,00,68,
0,00000284,false,Rx,0,6,03,03,00,00,00,00,00,00,
0,00000588,false,Rx,0,8,0B,00,72,00,00,80,00,00,
449000,00000300,false,Rx,0,8,2B,20,20,20,3E,21,85,00,
0,00000280,false,Rx,0,8,B3,8D,00,00,23,FA,1A,23,
0,00000288,false,Rx,0,8,64,5B,D5,00,00,6B,57,8C,
0,00000380,false,Rx,0,8,B0,80,00,76,20,00,00,FE,
0,00000488,false,Rx,0,8,FF,23,00,72,FE,FF,FF,50,
0,00000300,false,Rx,0,8,2C,21,85,00,36,00,00,11,
0,00000300,false,Rx,0,3,1D,4E,4C,00,00,00,00,00,
0,00000280,false,Rx,0,8,B3,8D,00,00,23,FA,1A,23,
0,00000288,false,Rx,0,8,64,5B,D5,00,00,6B,57,8C,
0,00000380,false,Rx,0,8,B0,80,00,76,20,00,00,FE,
0,00000488,false,Rx,0,8,CF,23,00,72,FE,FF,FF,60,
0,00000740,false,Rx,0,1,BE,00,00,00,00,00,00,00,
0,00000480,false,Rx,0,8,54,2C,00,00,19,41,00,20,
0,00000284,false,Rx,0,6,04,04,00,00,00,00,00,00,
465000,00000588,false,Rx,0,8,0B,00,72,00,00,80,00,00,
0,00000280,false,Rx,0,8,B3,8D,00,00,23,FA,1A,23,
0,00000288,false,Rx,0,8,64,5B,D5,00,00,6B,57,8C,
0,00000380,false,Rx,0,8,B0,80,00,76,20,00,00,FE,
0,00000488,false,Rx,0,8,DF,23,00,72,FE,FF,FF,70,
0,00000280,false,Rx,0,8,B3,8D,00,00,23,FA,1A,23,
0,00000288,false,Rx,0,8,8A,5B,D5,00,00,6B,57,8C,
0,00000380,false,Rx,0,8,B0,80,00,76,20,00,00,FE,
0,00000488,false,Rx,0,8,2F,23,00,72,FE,FF,FF,80,
0,00000480,false,Rx,0,8,54,2C,00,00,19,41,00,20,
0,00000284,false,Rx,0,6,05,05,00,00,00,00,00,00,
0,00000588,false,Rx,0,8,0B,00,72,00,00,80,00,00,
0,00000280,false,Rx,0,8,B3,8D,00,00,23,FA,1A,23,
0,00000288,false,Rx,0,8,8A,5B,D5,00,00,6B,57,8C,
0,00000380,false,Rx,0,8,B0,80,00,76,20,00,00,FE,
0,00000488,false,Rx,0,8,3F,23,00,72,FE,FF,FF,90,
0,00000280,false,Rx,0,8,B3,8D,00,00,23,FA,1A,23,
0,00000288,false,Rx,0,8,8A,5B,D5,00,00,6B,57,8C,
0,00000380,false,Rx,0,8,B0,80,00,76,20,00,00,FE,
0,00000488,false,Rx,0,8,0F,23,00,72,FE,FF,FF,A0,
0,00000480,false,Rx,0,8,54,2C,00,00,19,41,00,20,
0,00000284,false,Rx,0,6,06,06,00,00,00,00,00,00,
0,00000588,false,Rx,0,8,0B,00,72,00,00,80,00,00,
0,00000280,false,Rx,0,8,B3,8D,00,00,23,FA,1A,23,
0,00000288,false,Rx,0,8,8A,5B,D5,00,00,6B,57,8C,
0,00000380,false,Rx,0,8,B0,80,00,76,20,00,00,FE,
0,00000488,false,Rx,0,8,1F,23,00,72,FE,FF,FF,B0,
0,00000280,false,Rx,0,8,B3,8D,00,00,23,FA,1A,23,
0,00000288,false,Rx,0,8,E8,5B,D5,00,00,6B,57,8C,
0,00000380,false,Rx,0,8,B0,80,00,76,20,00,00,FE,
0,00000488,false,Rx,0,8,6F,23,00,72,FE,FF,FF,C0,
0,00000480,false,Rx,0,8,54,2C,00,00,19,41,00,20,
0,00000284,false,Rx,0,6,07,07,00,00,00,00,00,00,
0,00000588,false,Rx,0,8,0B,00,72,00,00,80,00,00,
0,00000740,false,Rx,0,5,11,00,02,21,51,00,00,00,
0,00000300,false,Rx,0,1,B2,00,00,00,00,00,00,00,
531000,00000280,false,Rx,0,8,B3,8D,00,00,23,FA,1A,23,
0,00000288,false,Rx,0,8,E8,5B,D5,00,00,6B,57,8C,
0,00000380,false,Rx,0,8,B0,80,00,76,20,00,00,FE,
0,00000488,false,Rx,0,8,7F,23,00,72,FE,FF,FF,D0,
0,00000300,false,Rx,0,8,2E,00,38,61,51,5F,28,57,
539000,00000300,false,Rx,0,8,2F,56,57,58,4B,39,33,43,
0,00000280,false,Rx,0,8,B3,8D,00,00,23,FA,1A,23,
0,00000288,false,Rx,0,8,E8,5B,D5,00,00,6B,57,8C,
0,00000380,false,Rx,0,8,B0,80,00,76,20,00,00,FE,
0,00000488,false,Rx,0,8,4F,23,00,72,FE,FF,FF,E0,
0,00000480,false,Rx,0,8,84,2C,00,00,19,41,00,F0,
0,00000284,false,Rx,0,6,08,08,00,00,00,00,00,00,
0,00000588,false,Rx,0,8,0B,00,72,00,00,80,00,00,
0,00000300,false,Rx,0,8,20,35,37,45,30,32,34,35,
0,00000280,false,Rx,0,8,B3,8D,00,00,23,FA,1A,23,
0,00000288,false,Rx,0,8,E8,5B,D5,00,00,6B,57,8C,
0,00000300,false,Rx,0,8,21,32,32,20,56,57,5A,43,
0,00000380,false,Rx,0,8,B0,80,00,76,20,00,00,FE,
0,00000488,false,Rx,0,8,5F,23,00,72,FE,FF,FF,F0,
559000,00000300,false,Rx,0,8,22,5A,30,30,30,30,30,30,
0,00000280,false,Rx,0,8,B3,8D,00,00,23,FA,1A,23,
0,00000288,false,Rx,0,8,2C,5B,D5,00,00,6B,57,8C,
0,00000380,false,Rx,0,8,B0,80,00,76,20,00,00,FE,
0,00000488,false,Rx,0,8,50,23,00,72,FE,FF,00,00,
563000,00000300,false,Rx,0,8,23,30,30,30,20,3C,20,20,
0,00000480,false,Rx,0,8,84,2C,00,00,19,41,00,F0,
0,00000284,false,Rx,0,6,09,09,00,00,00,00,00,00,
0,00000588,false,Rx,0,8,0B,00,72,00,00,80,00,00,
0,00000300,false,Rx,0,8,24,20,20,20,3E,21,85,00,
0,00000280,false,Rx,0,8,B3,8D,00,00,23,FA,1A,23,
0,00000288,false,Rx,0,8,2C,5B,D5,00,00,6B,57,8C,
0,00000380,false,Rx,0,8,B0,80,00,76,20,00,00,FE,
0,00000488,false,Rx,0,8,BF,23,00,72,FE,FF,FF,10,
0,00000300,false,Rx,0,8,25,21,85,00,36,00,00,11,
0,00000280,false,Rx,0,8,B3,8D,00,00,23,FA,1A,23,
0,00000288,false,Rx,0,8,2C,5B,D5,00,00,6B,57,8C,
0,00000300,false,Rx,0,3,16,4E,4C,00,00,00,00,00,
0,00000380,false,Rx,0,8,B0,80,00,76,20,00,00,FE,
0,00000488,false,Rx,0,8,70,23,00,72,FE,FF,00,20,
0,00000480,false,Rx,0,8,84,2C,00,00,19,41,00,F0,
0,00000284,false,Rx,0,6,0A,0A,00,00,00,00,00,00,
0,00000588,false,Rx,0,8,0B,00,72,00,00,80,00,00,
0,00000740,false,Rx,0,1,B7,00,00,00,00,00,00,00,
0,00000280,false,Rx,0,8,B3,8D,00,00,23,FA,1A,23,
0,00000288,false,Rx,0,8,2C,5B,D5,00,00,6B,57,8C,
0,00000380,false,Rx,0,8,B0,80,00,76,20,00,00,FE,
0,00000488,false,Rx,0,8,60,23,00,72,FE,FF,00,30,
0,00000280,false,Rx,0,8,B3,8D,00,00,23,FA,1A,23,
0,00000288,false,Rx,0,8,64,5B,D5,00,00,6B,57,8C,
0,00000380,false,Rx,0,8,B0,80,00,76,20,00,00,FE,
0,00000488,false,Rx,0,8,10,23,00,72,FE,FF,00,40,
0,00000480,false,Rx,0,8,84,2C,00,00,19,41,00,F0,
0,00000284,false,Rx,0,6,0B,0B,00,00,00,00,00,00,
608000,00000588,false,Rx,0,8,0B,00,72,00,00,80,00,00,
0,00000280,false,Rx,0,8,B3,8D,00,00,23,FA,1A,23,
0,00000288,false,Rx,0,8,64,5B,D5,00,00,6B,57,8C,
0,00000380,false,Rx,0,8,B0,80,00,76,20,00,00,FE,
0,00000488,false,Rx,0,8,FF,23,00,72,FE,FF,FF,50,
621000,00000280,false,Rx,0,8,B3,8D,00,00,23,FA,1A,23,
0,00000288,false,Rx,0,8,64,5B,D5,00,00,6B,57,8C,
0,00000380,false,Rx,0,8,B0,80,00,76,20,00,00,FE,
0,00000488,false,Rx,0,8,CF,23,00,72,FE,FF,FF,60,
0,00000480,false,Rx,0,8,C2,2C,00,00,19,41,00,B6,
0,00000284,false,Rx,0,6,0C,0C,00,00,00,00,00,00,
0,00000588,false,Rx,0,8,0B,00,72,00,00,80,00,00,
0,00000280,false,Rx,0,8,B3,8D,00,00,23,FA,1A,23,
0,00000288,false,Rx,0,8,64,5B,D5,00,00,6B,57,8C,
0,00000380,false,Rx,0,8,B0,80,00,76,20,00,00,FE,
0,00000488,false,Rx,0,8,DF,23,00,72,FE,FF,FF,70,
0,00000280,false,Rx,0,8,B3,8D,00,00,23,FA,1A,23,
0,00000288,false,Rx,0,8,8A,5B,D5,00,00,6B,57,8C,
0,00000380,false,Rx,0,8,B0,80,00,76,20,00,00,FE,
0,00000488,false,Rx,0,8,2F,23,00,72,FE,FF,FF,80,
0,00000480,false,Rx,0,8,C2,2C,00,00,19,41,00,B6,
0,00000284,false,Rx,0,6,0D,0D,00,00,00,00,00,00,
645000,00000588,false,Rx,0,8,0B,00,72,00,00,80,00,00,
0,00000740,false,Rx,0,5,12,00,02,21,51,00,00,00,
0,00000300,false,Rx,0,1,B3,00,00,00,00,00,00,00,
0,00000280,false,Rx,0,8,B3,8D,00,00,23,FA,1A,23,
0,00000288,false,Rx,0,8,8A,5B,D5,00,00,6B,57,8C,
0,00000380,false,Rx,0,8,B0,80,00,76,20,00,00,FE,
0,00000488,false,Rx,0,8,3F,23,00,72,FE,FF,FF,90,
657000,00000300,false,Rx,0,8,27,00,38,61,51,5F,28,57,
0,00000280,false,Rx,0,8,B3,8D,00,00,23,FA,1A,23,
0,00000288,false,Rx,0,8,8A,5B,D5,00,00,6B,57,8C,
0,00000300,false,Rx,0,8,28,56,57,58,4B,39,33,43,
0,00000380,false,Rx,0,8,B0,80,00,76,20,00,00,FE,
0,00000488,false,Rx,0,8,0F,23,00,72,FE,FF,FF,A0,
0,00000480,false,Rx,0,8,C2,2C,00,00,19,41,00,B6,
0,00000284,false,Rx,0,6,0E,0E,00,00,00,00,00,00,
666000,00000588,false,Rx,0,8,0B,00,72,00,00,80,00,00,
670000,00000300,false,Rx,0,8,29,35,37,45,30,32,34,35,
0,00000280,false,Rx,0,8,B3,8D,00,00,23,FA,1A,23,
0,00000288,false,Rx,0,8,8A,5B,D5,00,00,6B,57,8C,
0,00000380,false,Rx,0,8,B0,80,00,76,20,00,00,FE,
0,00000488,false,Rx,0,8,1F,23,00,72,FE,FF,FF,B0,
674000,00000300,false,Rx,0,8,2A,32,32,20,56,57,5A,43,
0,00000300,false,Rx,0,8,2B,5A,30,30,30,30,30,30,
0,00000280,false,Rx,0,8,B3,8D,00,00,23,FA,1A,23,
0,00000288,false,Rx,0,8,E8,5B,D5,00,00,6B,57,8C,
0,00000380,false,Rx,0,8,B0,80,00,76,20,00,00,FE,
682000,00000488,false,Rx,0,8,6F,23,00,72,FE,FF,FF,C0,
0,00000480,false,Rx,0,8,C2,2C,00,00,19,41,00,B6,
0,00000284,false,Rx,0,6,0F,0F,00,00,00,00,00,00,
0,00000588,false,Rx,0,8,0B,00,72,00,00,80,00,00,
0,00000300,false,Rx,0,8,2C,30,30,30,20,3C,20,20,
0,00000280,false,Rx,0,8,B3,8D,00,00,23,FA,1A,23,
0,00000288,false,Rx,0,8,E8,5B,D5,00,00,6B,57,8C,
0,00000300,false,Rx,0,8,2D,20,20,20,3E,21,85,00,
0,00000380,false,Rx,0,8,B0,80,00,76,20,00,00,FE,
694000,00000488,false,Rx,0,8,7F,23,00,72,FE,FF,FF,D0,
698000,00000300,false,Rx,0,8,2E,21,85,00,36,00,00,11,
0,00000280,false,Rx,0,8,B3,8D,00,00,23,FA,1A,23,
0,00000288,false,Rx,0,8,E8,5B,D5,00,00,6B,57,8C,
0,00000380,false,Rx,0,8,B0,80,00,76,20,00,00,FE,
0,00000488,false,Rx,0,8,4F,23,00,72,FE,FF,FF,E0,
0,00000300,false,Rx,0,3,1F,4E,4C,00,00,00,00,00,
0,00000480,false,Rx,0,8,1C,2C,00,00,19,41,00,68,
0,00000284,false,Rx,0,6,00,00,00,00,00,00,00,00,
0,00000588,false,Rx,0,8,0B,00,72,00,00,80,00,00,
0,00000740,false,Rx,0,1,B0,00,00,00,00,00,00,00,
0,00000280,false,Rx,0,8,B3,8D,00,00,23,FA,1A,23,
0,00000288,false,Rx,0,8,E8,5B,D5,00,00,6B,57,8C,
0,00000380,false,Rx,0,8,B0,80,00,76,20,00,00,FE,
0,00000488,false,Rx,0,8,5F,23,00,72,FE,FF,FF,F0,
0,00000280,false,Rx,0,8,B3,8D,00,00,23,FA,1A,23,
0,00000288,false,Rx,0,8,2C,5B,D5,00,00,6B,57,8C,
0,00000380,false,Rx,0,8,B0,80,00,76,20,00,00,FE,
0,00000488,false,Rx,0,8,50,23,00,72,FE,FF,00,00,
0,00000480,false,Rx,0,8,1C,2C,00,00,19,41,00,68,
0,00000284,false,Rx,0,6,01,01,00,00,00,00,00,00,
0,00000588,false,Rx,0,8,0B,00,72,00,00,80,00,00,
0,00000280,false,Rx,0,8,B3,8D,00,00,23,FA,1A,23,
0,00000288,false,Rx,0,8,2C,5B,D5,00,00,6B,57,8C,
0,00000380,false,Rx,0,8,B0,80,00,76,20,00,00,FE,
0,00000488,false,Rx,0,8,BF,23,00,72,FE,FF,FF,10,
0,00000280,false,Rx,0,8,B3,8D,00,00,23,FA,1A,23,
0,00000288,false,Rx,0,8,2C,5B,D5,00,00,6B,57,8C,
0,00000380,false,Rx,0,8,B0,80,00,76,20,00,00,FE,
0,00000488,false,Rx,0,8,70,23,00,72,FE,FF,00,20,
0,00000480,false,Rx,0,8,1C,2C,00,00,19,41,00,68,
0,00000284,false,Rx,0,6,02,02,00,00,00,00,00,00,
0,00000588,false,Rx,0,8,0B,00,72,00,00,80,00,00,
0,00000280,false,Rx,0,8,B3,8D,00,00,23,FA,1A,23,
0,00000288,false,Rx,0,8,2C,5B,D5,00,00,6B,57,8C,
0,00000380,false,Rx,0,8,B0,80,00,76,20,00,00,FE,
0,00000488,false,Rx,0,8,60,23,00,72,FE,FF,00,30,
0,00000280,false,Rx,0,8,B3,8D,00,00,23,FA,1A,23,
0,00000288,false,Rx,0,8,64,5B,D5,00,00,6B,57,8C,
0,00000380,false,Rx,0,8,B0,80,00,76,20,00,00,FE,
0,00000488,false,Rx,0,8,10,23,00,72,FE,FF,00,40,
0,00000480,false,Rx,0,8,1C,2C,00,00,19,41,00,68,
0,00000284,false,Rx,0,6,03,03,00,00,00,00,00,00,
0,00000588,false,Rx,0,8,0B,00,72,00,00,80,00,00,
0,00000280,false,Rx,0,8,B3,8D,00,00,23,FA,1A,23,
0,00000288,false,Rx,0,8,64,5B,D5,00,00,6B,57,8C,
0,00000380,false,Rx,0,8,B0,80,00,76,20,00,00,FE,
776000,00000488,false,Rx,0,8,FF,23,00,72,FE,FF,FF,50,
0,00000740,false,Rx,0,1,A3,00,00,00,00,00,00,00,
0,00000300,false,Rx,0,6,A1,0F,8A,FF,4A,FF,00,00,
0,00000280,false,Rx,0,8,B3,8D,00,00,23,FA,1A,23,
0,00000288,false,Rx,0,8,64,5B,D5,00,00,6B,57,8C,
0,00000380,false,Rx,0,8,B0,80,00,76,20,00,00,FE,
0,00000488,false,Rx,0,8,CF,23,00,72,FE,FF,FF,60,
0,00000480,false,Rx,0,8,54,2C,00,00,19,41,00,20,
0,00000284,false,Rx,0,6,04,04,00,00,00,00,00,00,
0,00000588,false,Rx,0,8,0B,00,72,00,00,80,00,00,
0,00000740,false,Rx,0,5,13,00,02,21,51,00,00,00,
0,00000280,false,Rx,0,8,B3,8D,00,00,23,FA,1A,23,
0,00000288,false,Rx,0,8,64,5B,D5,00,00,6B,57,8C,
0,00000300,false,Rx,0,1,B4,00,00,00,00,00,00,00,
0,00000380,false,Rx,0,8,B0,80,00,76,20,00,00,FE,
0,00000488,false,Rx,0,8,DF,23,00,72,FE,FF,FF,70,
0,00000280,false,Rx,0,8,B3,8D,00,00,23,FA,1A,23,
0,00000288,false,Rx,0,8,8A,5B,D5,00,00,6B,57,8C,
0,00000380,false,Rx,0,8,B0,80,00,76,20,00,00,FE,
0,00000488,false,Rx,0,8,2F,23,00,72,FE,FF,FF,80,
0,00000300,false,Rx,0,8,20,00,38,61,51,5F,28,57,
0,00000480,false,Rx,0,8,54,2C,00,00,19,41,00,20,
0,00000284,false,Rx,0,6,05,05,00,00,00,00,00,00,
0,00000588,false,Rx,0,8,0B,00,72,00,00,80,00,00,
0,00000300,false,Rx,0,8,21,56,57,58,4B,39,33,43,
0,00000280,false,Rx,0,8,B3,8D,00,00,23,FA,1A,23,
0,00000288,false,Rx,0,8,8A,5B,D5,00,00,6B,57,8C,
0,00000380,false,Rx,0,8,B0,80,00,76,20,00,00,FE,
0,00000488,false,Rx,0,8,3F,23,00,72,FE,FF,FF,90,
817000,00000300,false,Rx,0,8,22,35,37,45,30,32,34,35,
0,00000280,false,Rx,0,8,B3,8D,00,00,23,FA,1A,23,
0,00000288,false,Rx,0,8,8A,5B,D5,00,00,6B,57,8C,
0,00000300,false,Rx,0,8,23,32,32,20,56,57,5A,43,
0,00000380,false,Rx,0,8,B0,80,00,76,20,00,00,FE,
0,00000488,false,Rx,0,8,0F,23,00,72,FE,FF,FF,A0,
0,00000480,false,Rx,0,8,54,2C,00,00,19,41,00,20,
0,00000284,false,Rx,0,6,06,06,00,00,00,00,00,00,
0,00000588,false,Rx,0,8,0B,00,72,00,00,80,00,00,
830000,00000300,false,Rx,0,8,24,5A,30,30,30,30,30,30,
0,00000280,false,Rx,0,8,B3,8D,00,00,23,FA,1A,23,
0,00000288,false,Rx,0,8,8A,5B,D5,00,00,6B,57,8C,
0,00000380,false,Rx,0,8,B0,80,00,76,20,00,00,FE,
0,00000488,false,Rx,0,8,1F,23,00,72,FE,FF,FF,B0,
834000,00000300,false,Rx,0,8,25,30,30,30,20,3C,20,20,
0,00000300,false,Rx,0,8,26,20,20,20,3E,21,85,00,
0,00000280,false,Rx,0,8,B3,8D,00,00,23,FA,1A,23,
0,00000288,false,Rx,0,8,E8,5B,D5,00,00,6B,57,8C,
0,00000380,false,Rx,0,8,B0,80,00,76,20,00,00,FE,
0,00000488,false,Rx,0,8,6F,23,00,72,FE,FF,FF,C0,
0,00000480,false,Rx,0,8,54,2C,00,00,19,41,00,20,
0,00000284,false,Rx,0,6,07,07,00,00,00,00,00,00,
0,00000588,false,Rx,0,8,0B,00,72,00,00,80,00,00,
846000,00000300,false,Rx,0,8,27,21,85,00,36,00,00,11,
0,00000280,false,Rx,0,8,B3,8D,00,00,23,FA,1A,23,
0,00000288,false,Rx,0,8,E8,5B,D5,00,00,6B,57,8C,
0,00000300,false,Rx,0,3,18,4E,4C,00,00,00,00,00,
0,00000380,false,Rx,0,8,B0,80,00,76,20,00,00,FE,
854000,00000488,false,Rx,0,8,7F,23,00,72,FE,FF,FF,D0,
858000,00000740,false,Rx,0,1,B9,00,00,00,00,00,00,00,
0,00000280,false,Rx,0,8,B3,8D,00,00,23,FA,1A,23,
0,00000288,false,Rx,0,8,E8,5B,D5,00,00,6B,57,8C,
0,00000380,false,Rx,0,8,B0,80,00,76,20,00,00,FE,
0,00000488,false,Rx,0,8,4F,23,00,72,FE,FF,FF,E0,
0,00000480,false,Rx,0,8,84,2C,00,00,19,41,00,F0,
0,00000284,false,Rx,0,6,08,08,00,00,00,00,00,00,
0,00000588,false,Rx,0,8,0B,00,72,00,00,80,00,00,
0,00000280,false,Rx,0,8,B3,8D,00,00,23,FA,1A,23,
0,00000288,false,Rx,0,8,E8,5B,D5,00,00,6B,57,8C,
0,00000380,false,Rx,0,8,B0,80,00,76,20,00,00,FE,
0,00000488,false,Rx,0,8,5F,23,00,72,FE,FF,FF,F0,
0,00000280,false,Rx,0,8,B3,8D,00,00,23,FA,1A,23,
0,00000288,false,Rx,0,8,2C,5B,D5,00,00,6B,57,8C,
0,00000380,false,Rx,0,8,B0,80,00,76,20,00,00,FE,
0,00000488,false,Rx,0,8,50,23,00,72,FE,FF,00,00,
0,00000480,false,Rx,0,8,84,2C,00,00,19,41,00,F0,
0,00000284,false,Rx,0,6,09,09,00,00,00,00,00,00,
0,00000588,false,Rx,0,8,0B,00,72,00,00,80,00,00,
0,00000280,false,Rx,0,8,B3,8D,00,00,23,FA,1A,23,
0,00000288,false,Rx,0,8,2C,5B,D5,00,00,6B,57,8C,
0,00000380,false,Rx,0,8,B0,80,00,76,20,00,00,FE,
0,00000488,false,Rx,0,8,BF,23,00,72,FE,FF,FF,10,
0,00000280,false,Rx,0,8,B3,8D,00,00,23,FA,1A,23,
0,00000288,false,Rx,0,8,2C,5B,D5,00,00,6B,57,8C,
0,00000380,false,Rx,0,8,B0,80,00,76,20,00,00,FE,
0,00000488,false,Rx,0,8,70,23,00,72,FE,FF,00,20,
0,00000480,false,Rx,0,8,84,2C,00,00,19,41,00,F0,
0,00000284,false,Rx,0,6,0A,0A,00,00,00,00,00,00,
0,00000588,false,Rx,0,8,0B,00,72,00,00,80,00,00,
0,00000280,false,Rx,0,8,B3,8D,00,00,23,FA,1A,23,
0,00000288,false,Rx,0,8,2C,5B,D5,00,00,6B,57,8C,
0,00000380,false,Rx,0,8,B0,80,00,76,20,00,00,FE,
0,00000488,false,Rx,0,8,60,23,00,72,FE,FF,00,30,
0,00000740,false,Rx,0,5,14,00,02,21,51,00,00,00,
0,00000300,false,Rx,0,1,B5,00,00,00,00,00,00,00,
0,00000280,false,Rx,0,8,B3,8D,00,00,23,FA,1A,23,
0,00000288,false,Rx,0,8,64,5B,D5,00,00,6B,57,8C,
0,00000380,false,Rx,0,8,B0,80,00,76,20,00,00,FE,
0,00000488,false,Rx,0,8,10,23,00,72,FE,FF,00,40,
924000,00000300,false,Rx,0,8,29,00,38,61,51,5F,28,57,
0,00000480,false,Rx,0,8,84,2C,00,00,19,41,00,F0,
0,00000284,false,Rx,0,6,0B,0B,00,00,00,00,00,00,
0,00000588,false,Rx,0,8,0B,00,72,00,00,80,00,00,
0,00000300,false,Rx,0,8,2A,56,57,58,4B,39,33,43,
0,00000280,false,Rx,0,8,B3,8D,00,00,23,FA,1A,23,
0,00000288,false,Rx,0,8,64,5B,D5,00,00,6B,57,8C,
0,00000380,false,Rx,0,8,B0,80,00,76,20,00,00,FE,
0,00000488,false,Rx,0,8,FF,23,00,72,FE,FF,FF,50,
0,00000300,false,Rx,0,8,2B,35,37,45,30,32,34,35,
0,00000280,false,Rx,0,8,B3,8D,00,00,23,FA,1A,23,
0,00000288,false,Rx,0,8,64,5B,D5,00,00,6B,57,8C,
0,00000300,false,Rx,0,8,2C,32,32,20,56,57,5A,43,
0,00000380,false,Rx,0,8,B0,80,00,76,20,00,00,FE,
0,00000488,false,Rx,0,8,CF,23,00,72,FE,FF,FF,60,
0,00000480,false,Rx,0,8,C2,2C,00,00,19,41,00,B6,
0,00000284,false,Rx,0,6,0C,0C,00,00,00,00,00,00,
0,00000588,false,Rx,0,8,0B,00,72,00,00,80,00,00,
0,00000300,false,Rx,0,8,2D,5A,30,30,30,30,30,30,
0,00000280,false,Rx,0,8,B3,8D,00,00,23,FA,1A,23,
0,00000288,false,Rx,0,8,64,5B,D5,00,00,6B,57,8C,
0,00000380,false,Rx,0,8,B0,80,00,76,20,00,00,FE,
0,00000488,false,Rx,0,8,DF,23,00,72,FE,FF,FF,70,
0,00000300,false,Rx,0,8,2E,30,30,30,20,3C,20,20,
960000,00000300,false,Rx,0,8,2F,20,20,20,3E,21,85,00,
0,00000280,false,Rx,0,8,B3,8D,00,00,23,FA,1A,23,
0,00000288,false,Rx,0,8,8A,5B,D5,00,00,6B,57,8C,
0,00000380,false,Rx,0,8,B0,80,00,76,20,00,00,FE,
0,00000488,false,Rx,0,8,2F,23,00,72,FE,FF,FF,80,
0,00000480,false,Rx,0,8,C2,2C,00,00,19,41,00,B6,
0,00000284,false,Rx,0,6,0D,0D,00,00,00,00,00,00,
0,00000588,false,Rx,0,8,0B,00,72,00,00,80,00,00,
0,00000300,false,Rx,0,8,20,21,85,00,36,00,00,11,
0,00000280,false,Rx,0,8,B3,8D,00,00,23,FA,1A,23,
0,00000288,false,Rx,0,8,8A,5B,D5,00,00,6B,57,8C,
0,00000300,false,Rx,0,3,11,4E,4C,00,00,00,00,00,
0,00000380,false,Rx,0,8,B0,80,00,76,20,00,00,FE,
0,00000488,false,Rx,0,8,3F,23,00,72,FE,FF,FF,90,
0,00000580,false,Rx,0,8,80,00,00,14,1C,93,48,14,
0,00000740,false,Rx,0,1,B2,00,00,00,00,00,00,00,
0,00000280,false,Rx,0,8,B3,8D,00,00,23,FA,1A,23,
0,00000288,false,Rx,0,8,8A,5B,D5,00,00,6B,57,8C,
0,00000380,false,Rx,0,8,B0,80,00,76,20,00,00,FE,
0,00000488,false,Rx,0,8,0F,23,00,72,FE,FF,FF,A0,
0,00000480,false,Rx,0,8,C2,2C,00,00,19,41,00,B6,
0,00000284,false,Rx,0,6,0E,0E,00,00,00,00,00,00,
0,00000588,false,Rx,0,8,0B,00,72,00,00,80,00,00,
0,00000280,false,Rx,0,8,B3,8D,00,00,23,FA,1A,23,
0,00000288,false,Rx,0,8,8A,5B,D5,00,00,6B,57,8C,
0,00000380,false,Rx,0,8,B0,80,00,76,20,00,00,FE,
0,00000488,false,Rx,0,8,1F,23,00,72,FE,FF,FF,B0,
2000,00000280,false,Rx,0,8,B3,8D,00,00,23,FA,1A,23,
0,00000288,false,Rx,0,8,E8,5B,D5,00,00,6B,57,8C,
0,00000380,false,Rx,0,8,B0,80,00,76,20,00,00,FE,
0,00000488,false,Rx,0,8,6F,23,00,72,FE,FF,FF,C0,
0,00000480,false,Rx,0,8,C2,2C,00,00,19,41,00,B6,
0,00000284,false,Rx,0,6,0F,0F,00,00,00,00,00,00,
0,00000588,false,Rx,0,8,0B,00,72,00,00,80,00,00,
0,00000280,false,Rx,0,8,B3,8D,00,00,23,FA,1A,23,
0,00000288,false,Rx,0,8,E8,5B,D5,00,00,6B,57,8C,
0,00000380,false,Rx,0,8,B0,80,00,76,20,00,00,FE,
0,00000488,false,Rx,0,8,7F,23,00,72,FE,FF,FF,D0,
0,00000280,false,Rx,0,8,B3,8D,00,00,23,FA,1A,23,
0,00000288,false,Rx,0,8,E8,5B,D5,00,00,6B,57,8C,
0,00000380,false,Rx,0,8,B0,80,00,76,20,00,00,FE,
0,00000488,false,Rx,0,8,4F,23,00,72,FE,FF,FF,E0,
0,00000480,false,Rx,0,8,1C,2C,00,00,19,41,00,68,
0,00000284,false,Rx,0,6,00,00,00,00,00,00,00,00,
26000,00000588,false,Rx,0,8,0B,00,72,00,00,80,00,00,
0,00000280,false,Rx,0,8,B3,8D,00,00,23,FA,1A,23,
0,00000288,false,Rx,0,8,E8,5B,D5,00,00,6B,57,8C,
0,00000380,false,Rx,0,8,B0,80,00,76,20,00,00,FE,
0,00000488,false,Rx,0,8,5F,23,00,72,FE,FF,FF,F0,
0,00000740,false,Rx,0,5,15,00,02,21,51,00,00,00,
0,00000280,false,Rx,0,8,B3,8D,00,00,23,FA,1A,23,
0,00000288,false,Rx,0,8,2C,5B,D5,00,00,6B,57,8C,
0,00000300,false,Rx,0,1,B6,00,00,00,00,00,00,00,
0,00000380,false,Rx,0,8,B0,80,00,76,20,00,00,FE,
0,00000488,false,Rx,0,8,50,23,00,72,FE,FF,00,00,
0,00000480,false,Rx,0,8,1C,2C,00,00,19,41,00,68,
0,00000284,false,Rx,0,6,01,01,00,00,00,00,00,00,
47000,00000588,false,Rx,0,8,0B,00,72,00,00,80,00,00,
51000,00000300,false,Rx,0,8,22,00,38,61,51,5F,28,57,
0,00000280,false,Rx,0,8,B3,8D,00,00,23,FA,1A,23,
0,00000288,false,Rx,0,8,2C,5B,D5,00,00,6B,57,8C,
0,00000380,false,Rx,0,8,B0,80,00,76,20,00,00,FE,
0,00000488,false,Rx,0,8,BF,23,00,72,FE,FF,FF,10,
55000,00000300,false,Rx,0,8,23,56,57,58,4B,39,33,43,
0,00000300,false,Rx,0,8,24,35,37,45,30,32,34,35,
0,00000280,false,Rx,0,8,B3,8D,00,00,23,FA,1A,23,
0,00000288,false,Rx,0,8,2C,5B,D5,00,00,6B,57,8C,
0,00000380,false,Rx,0,8,B0,80,00,76,20,00,00,FE,
0,00000488,false,Rx,0,8,70,23,00,72,FE,FF,00,20,
0,00000480,false,Rx,0,8,1C,2C,00,00,19,41,00,68,
0,00000284,false,Rx,0,6,02,02,00,00,00,00,00,00,
0,00000588,false,Rx,0,8,0B,00,72,00,00,80,00,00,
0,00000300,false,Rx,0,8,25,32,32,20,56,57,5A,43,
0,00000280,false,Rx,0,8,B3,8D,00,00,23,FA,1A,23,
0,00000288,false,Rx,0,8,2C,5B,D5,00,00,6B,57,8C,
0,00000380,false,Rx,0,8,B0,80,00,76,20,00,00,FE,
0,00000300,false,Rx,0,8,26,5A,30,30,30,30,30,30,
75000,00000488,false,Rx,0,8,60,23,00,72,FE,FF,00,30,
79000,00000300,false,Rx,0,8,27,30,30,30,20,3C,20,20,
0,00000280,false,Rx,0,8,B3,8D,00,00,23,FA,1A,23,
0,00000288,false,Rx,0,8,64,5B,D5,00,00,6B,57,8C,
0,00000380,false,Rx,0,8,B0,80,00,76,20,00,00,FE,
0,00000488,false,Rx,0,8,10,23,00,72,FE,FF,00,40,
0,00000300,false,Rx,0,8,28,20,20,20,3E,21,85,00,
0,00000480,false,Rx,0,8,1C,2C,00,00,19,41,00,68,
0,00000284,false,Rx,0,6,03,03,00,00,00,00,00,00,
0,00000588,false,Rx,0,8,0B,00,72,00,00,80,00,00,
0,00000300,false,Rx,0,8,29,21,85,00,36,00,00,11,
0,00000280,false,Rx,0,8,B3,8D,00,00,23,FA,1A,23,
0,00000288,false,Rx,0,8,64,5B,D5,00,00,6B,57,8C,
0,00000380,false,Rx,0,8,B0,80,00,76,20,00,00,FE,
0,00000488,false,Rx,0,8,FF,23,00,72,FE,FF,FF,50,
0,00000300,false,Rx,0,3,1A,4E,4C,00,00,00,00,00,
0,00000740,false,Rx,0,1,BB,00,00,00,00,00,00,00,
